Freq.	V(n028)
Step Information: Run=1  (Step: 1/100)
1.00000000000000e+00	(-1.38289488479761e-01dB,-5.60304697797998e-01Ḟ)
1.04712854805090e+00	(-1.38329556622167e-01dB,-5.86709240312136e-01Ḟ)
1.09647819614319e+00	(-1.38373490041584e-01dB,-6.14357923278627e-01Ḟ)
1.14815362149688e+00	(-1.38421661567288e-01dB,-6.43309341635719e-01Ḟ)
1.20226443461741e+00	(-1.38474479980794e-01dB,-6.73624845951255e-01Ḟ)
1.25892541179417e+00	(-1.38532393481279e-01dB,-7.05368671422903e-01Ḟ)
1.31825673855641e+00	(-1.38595893484106e-01dB,-7.38608072830964e-01Ḟ)
1.38038426460289e+00	(-1.38665518785693e-01dB,-7.73413465700728e-01Ḟ)
1.44543977074593e+00	(-1.38741860127690e-01dB,-8.09858573951538e-01Ḟ)
1.51356124843621e+00	(-1.38825565202345e-01dB,-8.48020584304269e-01Ḟ)
1.58489319246111e+00	(-1.38917344137352e-01dB,-8.87980307753262e-01Ḟ)
1.65958690743756e+00	(-1.39017975509172e-01dB,-9.29822348378136e-01Ḟ)
1.73780082874938e+00	(-1.39128312934392e-01dB,-9.73635279829757e-01Ḟ)
1.81970085860999e+00	(-1.39249292293275e-01dB,-1.01951182978806e+00Ḟ)
1.90546071796325e+00	(-1.39381939649129e-01dB,-1.06754907272980e+00Ḟ)
1.99526231496888e+00	(-1.39527379926223e-01dB,-1.11784863133436e+00Ḟ)
2.08929613085404e+00	(-1.39686846420778e-01dB,-1.17051688687353e+00Ḟ)
2.18776162394956e+00	(-1.39861691225463e-01dB,-1.22566519892847e+00Ḟ)
2.29086765276778e+00	(-1.40053396651202e-01dB,-1.28341013479195e+00Ḟ)
2.39883291901949e+00	(-1.40263587744753e-01dB,-1.34387370891010e+00Ḟ)
2.51188643150958e+00	(-1.40494046004040e-01dB,-1.40718363272229e+00Ḟ)
2.63026799189539e+00	(-1.40746724405221e-01dB,-1.47347357526198e+00Ḟ)
2.75422870333817e+00	(-1.41023763866691e-01dB,-1.54288343487596e+00Ḟ)
2.88403150312661e+00	(-1.41327511284636e-01dB,-1.61555962241064e+00Ḟ)
3.01995172040202e+00	(-1.41660539289774e-01dB,-1.69165535621304e+00Ḟ)
3.16227766016839e+00	(-1.42025667886664e-01dB,-1.77133096927454e+00Ḟ)
3.31131121482592e+00	(-1.42425988151615e-01dB,-1.85475422883973e+00Ḟ)
3.46736850452532e+00	(-1.42864888185438e-01dB,-1.94210066875789e+00Ḟ)
3.63078054770102e+00	(-1.43346081527326e-01dB,-2.03355393485058e+00Ḟ)
3.80189396320562e+00	(-1.43873638262328e-01dB,-2.12930614351698e+00Ḟ)
3.98107170553498e+00	(-1.44452019071968e-01dB,-2.22955825375189e+00Ḟ)
4.16869383470336e+00	(-1.45086112498329e-01dB,-2.33452045270640e+00Ḟ)
4.36515832240167e+00	(-1.45781275720799e-01dB,-2.44441255484039e+00Ḟ)
4.57088189614876e+00	(-1.46543379164656e-01dB,-2.55946441463974e+00Ḟ)
4.78630092322640e+00	(-1.47378855291924e-01dB,-2.67991635278374e+00Ḟ)
5.01187233627274e+00	(-1.48294751953210e-01dB,-2.80601959551244e+00Ḟ)
5.24807460249774e+00	(-1.49298790713330e-01dB,-2.93803672682307e+00Ḟ)
5.49540873857626e+00	(-1.50399430592398e-01dB,-3.07624215296367e+00Ḟ)
5.75439937337159e+00	(-1.51605937704921e-01dB,-3.22092257849875e+00Ḟ)
6.02559586074359e+00	(-1.52928461316337e-01dB,-3.37237749300157e+00Ḟ)
6.30957344480195e+00	(-1.54378116873610e-01dB,-3.53091966719025e+00Ḟ)
6.60693448007598e+00	(-1.55967076612449e-01dB,-3.69687565701376e+00Ḟ)
6.91830970918939e+00	(-1.57708668386348e-01dB,-3.87058631385822e+00Ḟ)
7.24435960074992e+00	(-1.59617483404728e-01dB,-4.05240729866542e+00Ḟ)
7.58577575029186e+00	(-1.61709493620107e-01dB,-4.24270959729051e+00Ḟ)
7.94328234724284e+00	(-1.64002179544416e-01dB,-4.44188003392278e+00Ḟ)
8.31763771102674e+00	(-1.66514669326950e-01dB,-4.65032177880280e+00Ḟ)
8.70963589956084e+00	(-1.69267889968590e-01dB,-4.86845484580032e+00Ḟ)
9.12010839355913e+00	(-1.72284731593468e-01dB,-5.09671657465578e+00Ḟ)
9.54992586021439e+00	(-1.75590225739157e-01dB,-5.33556209183047e+00Ḟ)
1.00000000000000e+01	(-1.79211738659867e-01dB,-5.58546474293537e+00Ḟ)
1.04712854805090e+01	(-1.83179180671461e-01dB,-5.84691648861079e+00Ḟ)
1.09647819614319e+01	(-1.87525232578818e-01dB,-6.12042825450842e+00Ḟ)
1.14815362149689e+01	(-1.92285590239311e-01dB,-6.40653022464393e+00Ḟ)
1.20226443461742e+01	(-1.97499228300152e-01dB,-6.70577206587125e+00Ḟ)
1.25892541179417e+01	(-2.03208684126879e-01dB,-7.01872306952342e+00Ḟ)
1.31825673855641e+01	(-2.09460362871257e-01dB,-7.34597219442000e+00Ḟ)
1.38038426460289e+01	(-2.16304864555454e-01dB,-7.68812799337361e+00Ḟ)
1.44543977074593e+01	(-2.23797333912461e-01dB,-8.04581840312949e+00Ḟ)
1.51356124843621e+01	(-2.31997833561650e-01dB,-8.41969037525626e+00Ḟ)
1.58489319246112e+01	(-2.40971740864702e-01dB,-8.81040932295304e+00Ḟ)
1.65958690743757e+01	(-2.50790168527218e-01dB,-9.21865835601414e+00Ḟ)
1.73780082874938e+01	(-2.61530408638183e-01dB,-9.64513727336902e+00Ḟ)
1.81970085860999e+01	(-2.73276399390075e-01dB,-1.00905612797042e+01Ḟ)
1.90546071796326e+01	(-2.86119213170430e-01dB,-1.05556593897464e+01Ḟ)
1.99526231496889e+01	(-3.00157564042544e-01dB,-1.10411724809383e+01Ḟ)
2.08929613085405e+01	(-3.15498331845210e-01dB,-1.15478509525388e+01Ḟ)
2.18776162394956e+01	(-3.32257099195049e-01dB,-1.20764519468101e+01Ḟ)
2.29086765276778e+01	(-3.50558696590953e-01dB,-1.26277360860383e+01Ḟ)
2.39883291901950e+01	(-3.70537749561432e-01dB,-1.32024636779017e+01Ḟ)
2.51188643150959e+01	(-3.92339220368675e-01dB,-1.38013903414020e+01Ḟ)
2.63026799189540e+01	(-4.16118935187772e-01dB,-1.44252620064635e+01Ḟ)
2.75422870333818e+01	(-4.42044085908010e-01dB,-1.50748092427661e+01Ḟ)
2.88403150312662e+01	(-4.70293693794775e-01dB,-1.57507408777249e+01Ḟ)
3.01995172040203e+01	(-5.01059020200040e-01dB,-1.64537368702297e+01Ḟ)
3.16227766016840e+01	(-5.34543907396756e-01dB,-1.71844404161870e+01Ḟ)
3.31131121482593e+01	(-5.70965030465548e-01dB,-1.79434492745482e+01Ḟ)
3.46736850452534e+01	(-6.10552039087165e-01dB,-1.87313063187505e+01Ḟ)
3.63078054770103e+01	(-6.53547566192342e-01dB,-1.95484893387110e+01Ḟ)
3.80189396320563e+01	(-7.00207078810453e-01dB,-2.03954001429882e+01Ḟ)
3.98107170553500e+01	(-7.50798545328457e-01dB,-2.12723530395280e+01Ḟ)
4.16869383470338e+01	(-8.05601892872099e-01dB,-2.21795628064953e+01Ḟ)
4.36515832240169e+01	(-8.64908228876733e-01dB,-2.31171323016431e+01Ḟ)
4.57088189614878e+01	(-9.29018802334338e-01dB,-2.40850398987560e+01Ḟ)
4.78630092322641e+01	(-9.98243682889726e-01dB,-2.50831269817926e+01Ḟ)
5.01187233627275e+01	(-1.07290014011562e+00dB,-2.61110857698177e+01Ḟ)
5.24807460249776e+01	(-1.15331071108306e+00dB,-2.71684477865222e+01Ḟ)
5.49540873857628e+01	(-1.23980095183140e+00dB,-2.82545733245695e+01Ḟ)
5.75439937337161e+01	(-1.33269687755423e+00dB,-2.93686422841187e+01Ḟ)
6.02559586074362e+01	(-1.43232210712087e+00dB,-3.05096467834554e+01Ḟ)
6.30957344480197e+01	(-1.53899473969129e+00dB,-3.16763859443671e+01Ḟ)
6.60693448007600e+01	(-1.65302400424027e+00dB,-3.28674632426075e+01Ḟ)
6.91830970918941e+01	(-1.77470673621036e+00dB,-3.40812867818967e+01Ḟ)
7.24435960074995e+01	(-1.90432374853574e+00dB,-3.53160727967013e+01Ḟ)
7.58577575029189e+01	(-2.04213617608632e+00dB,-3.65698526140483e+01Ḟ)
7.94328234724287e+01	(-2.18838188226935e+00dB,-3.78404832089520e+01Ḟ)
8.31763771102677e+01	(-2.34327202321887e+00dB,-3.91256613744310e+01Ḟ)
8.70963589956087e+01	(-2.50698786787726e+00dB,-4.04229414002868e+01Ḟ)
9.12010839355916e+01	(-2.67967797075005e+00dB,-4.17297560209408e+01Ḟ)
9.54992586021443e+01	(-2.86145578781828e+00dB,-4.30434402593342e+01Ḟ)
1.00000000000001e+02	(-3.05239781502466e+00dB,-4.43612576693984e+01Ḟ)
1.04712854805091e+02	(-3.25254231326105e+00dB,-4.56804283722311e+01Ḟ)
1.09647819614319e+02	(-3.46188866458604e+00dB,-4.69981581984267e+01Ḟ)
1.14815362149689e+02	(-3.68039738254800e+00dB,-4.83116681969991e+01Ḟ)
1.20226443461742e+02	(-3.90799077624078e+00dB,-4.96182237539728e+01Ḟ)
1.25892541179418e+02	(-4.14455424450463e+00dB,-5.09151625822043e+01Ḟ)
1.31825673855642e+02	(-4.38993815488855e+00dB,-5.21999208970429e+01Ḟ)
1.38038426460290e+02	(-4.64396024289835e+00dB,-5.34700571760116e+01Ḟ)
1.44543977074594e+02	(-4.90640845169416e+00dB,-5.47232730087150e+01Ḟ)
1.51356124843622e+02	(-5.17704412148120e+00dB,-5.59574306680778e+01Ḟ)
1.58489319246113e+02	(-5.45560543169195e+00dB,-5.71705671674838e+01Ḟ)
1.65958690743757e+02	(-5.74181099767968e+00dB,-5.83609047020896e+01Ḟ)
1.73780082874939e+02	(-6.03536352665061e+00dB,-5.95268574991304e+01Ḟ)
1.81970085861000e+02	(-6.33595344435912e+00dB,-6.06670352150823e+01Ḟ)
1.90546071796326e+02	(-6.64326241386031e+00dB,-6.17802431126269e+01Ḟ)
1.99526231496890e+02	(-6.95696667947294e+00dB,-6.28654793246752e+01Ḟ)
2.08929613085406e+02	(-7.27674018215311e+00dB,-6.39219295652168e+01Ḟ)
2.18776162394957e+02	(-7.60225740588159e+00dB,-6.49489596780143e+01Ḟ)
2.29086765276779e+02	(-7.93319592770325e+00dB,-6.59461064258750e+01Ḟ)
2.39883291901951e+02	(-8.26923865616191e+00dB,-6.69130669180391e+01Ḟ)
2.51188643150960e+02	(-8.61007575362802e+00dB,-6.78496870542671e+01Ḟ)
2.63026799189540e+02	(-8.95540624717302e+00dB,-6.87559493348032e+01Ḟ)
2.75422870333819e+02	(-9.30493934008443e+00dB,-6.96319603487885e+01Ḟ)
2.88403150312663e+02	(-9.65839544184236e+00dB,-7.04779382128928e+01Ḟ)
3.01995172040204e+02	(-1.00155069384888e+01dB,-7.12942001894404e+01Ḟ)
3.16227766016841e+02	(-1.03760187279651e+01dB,-7.20811506712766e+01Ḟ)
3.31131121482594e+02	(-1.07396885463737e+01dB,-7.28392696806084e+01Ḟ)
3.46736850452535e+02	(-1.11062871114448e+01dB,-7.35691019922085e+01Ḟ)
3.63078054770105e+02	(-1.14755981089697e+01dB,-7.42712469584399e+01Ḟ)
3.80189396320565e+02	(-1.18474180468072e+01dB,-7.49463490848695e+01Ḟ)
3.98107170553501e+02	(-1.22215559994571e+01dB,-7.55950893809117e+01Ḟ)
4.16869383470339e+02	(-1.25978332642775e+01dB,-7.62181774898635e+01Ḟ)
4.36515832240170e+02	(-1.29760829483458e+01dB,-7.68163445865568e+01Ḟ)
4.57088189614879e+02	(-1.33561495028200e+01dB,-7.73903370183343e+01Ḟ)
4.78630092322643e+02	(-1.37378882195364e+01dB,-7.79409106557054e+01Ḟ)
5.01187233627277e+02	(-1.41211647025428e+01dB,-7.84688259124301e+01Ḟ)
5.24807460249778e+02	(-1.45058543253531e+01dB,-7.89748433904881e+01Ḟ)
5.49540873857630e+02	(-1.48918416829468e+01dB,-7.94597201029923e+01Ḟ)
5.75439937337163e+02	(-1.52790200459457e+01dB,-7.99242062272511e+01Ḟ)
6.02559586074364e+02	(-1.56672908229747e+01dB,-8.03690423405230e+01Ḟ)
6.30957344480200e+02	(-1.60565630359673e+01dB,-8.07949570922600e+01Ḟ)
6.60693448007603e+02	(-1.64467528120850e+01dB,-8.12026652685687e+01Ḟ)
6.91830970918944e+02	(-1.68377828949889e+01dB,-8.15928662070096e+01Ḟ)
7.24435960074998e+02	(-1.72295821774083e+01dB,-8.19662425225428e+01Ḟ)
7.58577575029192e+02	(-1.76220852562874e+01dB,-8.23234591083011e+01Ḟ)
7.94328234724290e+02	(-1.80152320112361e+01dB,-8.26651623777856e+01Ḟ)
8.31763771102680e+02	(-1.84089672065664e+01dB,-8.29919797179903e+01Ḟ)
8.70963589956090e+02	(-1.88032401168245e+01dB,-8.33045191257886e+01Ḟ)
9.12010839355920e+02	(-1.91980041754448e+01dB,-8.36033690026273e+01Ḟ)
9.54992586021446e+02	(-1.95932166459267e+01dB,-8.38890980851284e+01Ḟ)
1.00000000000001e+03	(-1.99888383147619e+01dB,-8.41622554915977e+01Ḟ)
1.04712854805091e+03	(-2.03848332052184e+01dB,-8.44233708666517e+01Ḟ)
1.09647819614320e+03	(-2.07811683109963e+01dB,-8.46729546082134e+01Ḟ)
1.14815362149690e+03	(-2.11778133487162e+01dB,-8.49114981629861e+01Ḟ)
1.20226443461743e+03	(-2.15747405281689e+01dB,-8.51394743782012e+01Ḟ)
1.25892541179418e+03	(-2.19719243392409e+01dB,-8.53573378989605e+01Ḟ)
1.31825673855642e+03	(-2.23693413544370e+01dB,-8.55655256018591e+01Ḟ)
1.38038426460290e+03	(-2.27669700459362e+01dB,-8.57644570568025e+01Ḟ)
1.44543977074594e+03	(-2.31647906161408e+01dB,-8.59545350100197e+01Ḟ)
1.51356124843623e+03	(-2.35627848407120e+01dB,-8.61361458822459e+01Ḟ)
1.58489319246113e+03	(-2.39609359231210e+01dB,-8.63096602769030e+01Ḟ)
1.65958690743758e+03	(-2.43592283597830e+01dB,-8.64754334938677e+01Ḟ)
1.73780082874940e+03	(-2.47576478148832e+01dB,-8.66338060450786e+01Ḟ)
1.81970085861001e+03	(-2.51561810040427e+01dB,-8.67851041688230e+01Ḟ)
1.90546071796327e+03	(-2.55548155860153e+01dB,-8.69296403400507e+01Ḟ)
1.99526231496890e+03	(-2.59535400616428e+01dB,-8.70677137745155e+01Ḟ)
2.08929613085406e+03	(-2.63523436793341e+01dB,-8.71996109249256e+01Ḟ)
2.18776162394958e+03	(-2.67512163463699e+01dB,-8.73256059676310e+01Ḟ)
2.29086765276780e+03	(-2.71501485453645e+01dB,-8.74459612786590e+01Ḟ)
2.39883291901952e+03	(-2.75491312552480e+01dB,-8.75609278981693e+01Ḟ)
2.51188643150961e+03	(-2.79481558761566e+01dB,-8.76707459826112e+01Ḟ)
2.63026799189541e+03	(-2.83472141576434e+01dB,-8.77756452440555e+01Ḟ)
2.75422870333820e+03	(-2.87462981296403e+01dB,-8.78758453763311e+01Ḟ)
2.88403150312664e+03	(-2.91454000356198e+01dB,-8.79715564677317e+01Ḟ)
3.01995172040205e+03	(-2.95445122674143e+01dB,-8.80629794001741e+01Ḟ)
3.16227766016842e+03	(-2.99436273011649e+01dB,-8.81503062347854e+01Ḟ)
3.31131121482595e+03	(-3.03427376338727e+01dB,-8.82337205839770e+01Ḟ)
3.46736850452536e+03	(-3.07418357200266e+01dB,-8.83133979701330e+01Ḟ)
3.63078054770106e+03	(-3.11409139077837e+01dB,-8.83895061710943e+01Ḟ)
3.80189396320566e+03	(-3.15399643741654e+01dB,-8.84622055526654e+01Ḟ)
3.98107170553503e+03	(-3.19389790587262e+01dB,-8.85316493884103e+01Ḟ)
4.16869383470341e+03	(-3.23379495951330e+01dB,-8.85979841670302e+01Ḟ)
4.36515832240172e+03	(-3.27368672400764e+01dB,-8.86613498876394e+01Ḟ)
4.57088189614881e+03	(-3.31357227989054e+01dB,-8.87218803432744e+01Ḟ)
4.78630092322645e+03	(-3.35345065473524e+01dB,-8.87797033929834e+01Ḟ)
5.01187233627279e+03	(-3.39332081486731e+01dB,-8.88349412228496e+01Ḟ)
5.24807460249780e+03	(-3.43318165654904e+01dB,-8.88877105963103e+01Ḟ)
5.49540873857632e+03	(-3.47303199655780e+01dB,-8.89381230941353e+01Ḟ)
5.75439937337165e+03	(-3.51287056207658e+01dB,-8.89862853444260e+01Ḟ)
6.02559586074366e+03	(-3.55269597980893e+01dB,-8.90322992429968e+01Ḟ)
6.30957344480202e+03	(-3.59250676422275e+01dB,-8.90762621644971e+01Ḟ)
6.60693448007605e+03	(-3.63230130482012e+01dB,-8.91182671646250e+01Ḟ)
6.91830970918946e+03	(-3.67207785232077e+01dB,-8.91584031737802e+01Ḟ)
7.24435960075000e+03	(-3.71183450363707e+01dB,-8.91967551824964e+01Ḟ)
7.58577575029195e+03	(-3.75156918550682e+01dB,-8.92334044189837e+01Ḟ)
7.94328234724293e+03	(-3.79127963663773e+01dB,-8.92684285191088e+01Ḟ)
8.31763771102683e+03	(-3.83096338820307e+01dB,-8.93019016891263e+01Ḟ)
8.70963589956093e+03	(-3.87061774251253e+01dB,-8.93338948614722e+01Ḟ)
9.12010839355923e+03	(-3.91023974966400e+01dB,-8.93644758439184e+01Ḟ)
9.54992586021450e+03	(-3.94982618196298e+01dB,-8.93937094623801e+01Ḟ)
1.00000000000001e+04	(-3.98937350587358e+01dB,-8.94216576976611e+01Ḟ)
1.04712854805092e+04	(-4.02887785124041e+01dB,-8.94483798164121e+01Ḟ)
1.09647819614320e+04	(-4.06833497749309e+01dB,-8.94739324965715e+01Ḟ)
1.14815362149690e+04	(-4.10774023651337e+01dB,-8.94983699475514e+01Ḟ)
1.20226443461743e+04	(-4.14708853181033e+01dB,-8.95217440254229e+01Ḟ)
1.25892541179419e+04	(-4.18637427360876e+01dB,-8.95441043433520e+01Ḟ)
1.31825673855643e+04	(-4.22559132941200e+01dB,-8.95654983775304e+01Ḟ)
1.38038426460291e+04	(-4.26473296954927e+01dB,-8.95859715688427e+01Ḟ)
1.44543977074595e+04	(-4.30379180716062e+01dB,-8.96055674205066e+01Ḟ)
1.51356124843623e+04	(-4.34275973200772e+01dB,-8.96243275919231e+01Ḟ)
1.58489319246114e+04	(-4.38162783742417e+01dB,-8.96422919889704e+01Ḟ)
1.65958690743759e+04	(-4.42038633963493e+01dB,-8.96594988509789e+01Ḟ)
1.73780082874940e+04	(-4.45902448857748e+01dB,-8.96759848346236e+01Ḟ)
1.81970085861001e+04	(-4.49753046924589e+01dB,-8.96917850949793e+01Ḟ)
1.90546071796328e+04	(-4.53589129245133e+01dB,-8.97069333639871e+01Ḟ)
1.99526231496891e+04	(-4.57409267374395e+01dB,-8.97214620265939e+01Ḟ)
2.08929613085407e+04	(-4.61211889906960e+01dB,-8.97354021948375e+01Ḟ)
2.18776162394959e+04	(-4.64995267553466e+01dB,-8.97487837801715e+01Ḟ)
2.29086765276781e+04	(-4.68757496541846e+01dB,-8.97616355643423e+01Ḟ)
2.39883291901953e+04	(-4.72496480129838e+01dB,-8.97739852691653e+01Ḟ)
2.51188643150962e+04	(-4.76209907982949e+01dB,-8.97858596255797e+01Ḟ)
2.63026799189542e+04	(-4.79895233133744e+01dB,-8.97972844424130e+01Ḟ)
2.75422870333821e+04	(-4.83549646192865e+01dB,-8.98082846753397e+01Ḟ)
2.88403150312665e+04	(-4.87170046427759e+01dB,-8.98188844965982e+01Ḟ)
3.01995172040207e+04	(-4.90753009259796e+01dB,-8.98291073661187e+01Ḟ)
3.16227766016843e+04	(-4.94294749651608e+01dB,-8.98389761048346e+01Ḟ)
3.31131121482597e+04	(-4.97791080760800e+01dB,-8.98485129710980e+01Ḟ)
3.46736850452537e+04	(-5.01237367119309e+01dB,-8.98577397413063e+01Ḟ)
3.63078054770107e+04	(-5.04628471454240e+01dB,-8.98666777960908e+01Ḟ)
3.80189396320568e+04	(-5.07958694088632e+01dB,-8.98753482137240e+01Ḟ)
3.98107170553504e+04	(-5.11221703639962e+01dB,-8.98837718728024e+01Ḟ)
4.16869383470342e+04	(-5.14410457457731e+01dB,-8.98919695667793e+01Ḟ)
4.36515832240173e+04	(-5.17517109892481e+01dB,-8.98999621336014e+01Ḟ)
4.57088189614883e+04	(-5.20532906044674e+01dB,-8.99077706046008e+01Ḟ)
4.78630092322647e+04	(-5.23448058072296e+01dB,-8.99154163779877e+01Ḟ)
5.01187233627281e+04	(-5.26251600399034e+01dB,-8.99229214238989e+01Ḟ)
5.24807460249782e+04	(-5.28931219201908e+01dB,-8.99303085301416e+01Ḟ)
5.49540873857634e+04	(-5.31473050286423e+01dB,-8.99376016007731e+01Ḟ)
5.75439937337167e+04	(-5.33861437762032e+01dB,-8.99448260238343e+01Ḟ)
6.02559586074368e+04	(-5.36078643642592e+01dB,-8.99520091304288e+01Ḟ)
6.30957344480204e+04	(-5.38104495369518e+01dB,-8.99591807757365e+01Ḟ)
6.60693448007608e+04	(-5.39915953923294e+01dB,-8.99663740847084e+01Ḟ)
6.91830970918949e+04	(-5.41486579098696e+01dB,-8.99736264231149e+01Ḟ)
7.24435960075003e+04	(-5.42785859817970e+01dB,-8.99809806814878e+01Ḟ)
7.58577575029197e+04	(-5.43778364704682e+01dB,-8.99884870006009e+01Ḟ)
7.94328234724296e+04	(-5.44422649386222e+01dB,-8.99962051313570e+01Ḟ)
8.31763771102686e+04	(-5.44669828589441e+01dB,-9.00042077247462e+01Ḟ)
8.70963589956096e+04	(-5.44461677042488e+01dB,-9.00125850165016e+01Ḟ)
9.12010839355926e+04	(-5.43728053032105e+01dB,-9.00214516572208e+01Ḟ)
9.54992586021453e+04	(-5.42383323304019e+01dB,-9.00309569399539e+01Ḟ)
1.00000000000002e+05	(-5.40321272408195e+01dB,-9.00413005897183e+01Ḟ)
1.04712854805092e+05	(-5.37407634120536e+01dB,-9.00527580157647e+01Ḟ)
1.09647819614321e+05	(-5.33468743875807e+01dB,-9.00657224068762e+01Ḟ)
1.14815362149690e+05	(-5.28273565108415e+01dB,-9.00807784615633e+01Ḟ)
1.20226443461744e+05	(-5.21503749606187e+01dB,-9.00988395366005e+01Ḟ)
1.25892541179419e+05	(-5.12700553511875e+01dB,-9.01214226378263e+01Ḟ)
1.31825673855643e+05	(-5.01162909091727e+01dB,-9.01512556613091e+01Ḟ)
1.38038426460291e+05	(-4.85729821307050e+01dB,-9.01938038594943e+01Ḟ)
1.44543977074595e+05	(-4.64240862304878e+01dB,-9.02618880901085e+01Ḟ)
1.51356124843624e+05	(-4.31849201165052e+01dB,-9.03944283080385e+01Ḟ)
1.58489319246114e+05	(-3.72868374418978e+01dB,-9.07921481400210e+01Ḟ)
1.65958690743759e+05	(-1.00787364952304e+01dB,1.08439463248117e+02Ḟ)
1.73780082874941e+05	(-3.83861235382972e+01dB,9.06785245148063e+01Ḟ)
1.81970085861002e+05	(-4.43575549519278e+01dB,9.03229784617550e+01Ḟ)
1.90546071796328e+05	(-4.78576368861048e+01dB,9.01969791343858e+01Ḟ)
1.99526231496892e+05	(-5.02665731005084e+01dB,9.01295933078123e+01Ḟ)
2.08929613085408e+05	(-5.20122925429958e+01dB,9.00854474042576e+01Ḟ)
2.18776162394960e+05	(-5.32720934712196e+01dB,9.00524267006597e+01Ḟ)
2.29086765276782e+05	(-5.41229475072388e+01dB,9.00250616425269e+01Ḟ)
2.39883291901954e+05	(-5.45875399910462e+01dB,9.00002426368428e+01Ḟ)
2.51188643150963e+05	(-5.46477567894283e+01dB,8.99756365954394e+01Ḟ)
2.63026799189543e+05	(-5.42407838057086e+01dB,8.99487268434650e+01Ḟ)
2.75422870333822e+05	(-5.32341740101196e+01dB,8.99155124035980e+01Ḟ)
2.88403150312666e+05	(-5.13495474230696e+01dB,8.98669425511505e+01Ḟ)
3.01995172040208e+05	(-4.78865116800607e+01dB,8.97725707548481e+01Ḟ)
3.16227766016844e+05	(-3.99339791432031e+01dB,8.94024262790167e+01Ḟ)
3.31131121482598e+05	(-3.65978178238137e+01dB,-8.91584897483954e+01Ḟ)
3.46736850452539e+05	(-4.75502214592227e+01dB,-8.97968884174677e+01Ḟ)
3.63078054770109e+05	(-5.19241528757045e+01dB,-8.99139114767007e+01Ḟ)
3.80189396320569e+05	(-5.42069311770072e+01dB,-8.99720644889961e+01Ḟ)
3.98107170553505e+05	(-5.51224755340195e+01dB,-9.00148239354283e+01Ḟ)
4.16869383470344e+05	(-5.47225555734064e+01dB,-9.00572244753769e+01Ḟ)
4.36515832240175e+05	(-5.25499376796472e+01dB,-9.01167603910081e+01Ḟ)
4.57088189614884e+05	(-4.65655212486388e+01dB,-9.02760821773347e+01Ḟ)
4.78630092322648e+05	(-3.57351229443391e+01dB,9.08977800234357e+01Ḟ)
