Freq.	V(n028)
Step Information: Run=1  (Step: 1/100)
1.00000000000000e+00	(-1.38288233550165e-01dB,-5.59457575345685e-01Ḟ)
1.04712854805090e+00	(-1.38328180631846e-01dB,-5.85822202379786e-01Ḟ)
1.09647819614319e+00	(-1.38371981313442e-01dB,-6.13429089918580e-01Ḟ)
1.14815362149688e+00	(-1.38420007298098e-01dB,-6.42336744479838e-01Ḟ)
1.20226443461741e+00	(-1.38472666132731e-01dB,-6.72606424070290e-01Ḟ)
1.25892541179417e+00	(-1.38530404662790e-01dB,-7.04302266996824e-01Ḟ)
1.31825673855641e+00	(-1.38593712819988e-01dB,-7.37491426614859e-01Ḟ)
1.38038426460289e+00	(-1.38663127773197e-01dB,-7.72244212286720e-01Ḟ)
1.44543977074593e+00	(-1.38739238480711e-01dB,-8.08634236810483e-01Ḟ)
1.51356124843621e+00	(-1.38822690678829e-01dB,-8.46738570604027e-01Ḟ)
1.58489319246111e+00	(-1.38914192351639e-01dB,-8.86637902934288e-01Ḟ)
1.65958690743756e+00	(-1.39014519724727e-01dB,-9.28416710490732e-01Ḟ)
1.73780082874938e+00	(-1.39124523838141e-01dB,-9.72163433607648e-01Ḟ)
1.81970085860999e+00	(-1.39245137747497e-01dB,-1.01797066045750e+00Ḟ)
1.90546071796325e+00	(-1.39377384419243e-01dB,-1.06593531954122e+00Ḟ)
1.99526231496888e+00	(-1.39522385382976e-01dB,-1.11615888080383e+00Ḟ)
2.08929613085404e+00	(-1.39681370213886e-01dB,-1.16874756572282e+00Ḟ)
2.18776162394956e+00	(-1.39855686925277e-01dB,-1.22381256671535e+00Ḟ)
2.29086765276778e+00	(-1.40046813357150e-01dB,-1.28147027621359e+00Ḟ)
2.39883291901949e+00	(-1.40256369655186e-01dB,-1.34184252577297e+00Ḟ)
2.51188643150958e+00	(-1.40486131945476e-01dB,-1.40505683556234e+00Ḟ)
2.63026799189539e+00	(-1.40738047316728e-01dB,-1.47124667461133e+00Ḟ)
2.75422870333817e+00	(-1.41014250234230e-01dB,-1.54055173215133e+00Ḟ)
2.88403150312661e+00	(-1.41317080522641e-01dB,-1.61311820042319e+00Ḟ)
3.01995172040202e+00	(-1.41649103062478e-01dB,-1.68909906928408e+00Ḟ)
3.16227766016839e+00	(-1.42013129365260e-01dB,-1.76865443294971e+00Ḟ)
3.31131121482592e+00	(-1.42412241201567e-01dB,-1.85195180918330e+00Ḟ)
3.46736850452532e+00	(-1.42849816475343e-01dB,-1.93916647122815e+00Ḟ)
3.63078054770102e+00	(-1.43329557554205e-01dB,-2.03048179274364e+00Ḟ)
3.80189396320562e+00	(-1.43855522283591e-01dB,-2.12608960597054e+00Ḟ)
3.98107170553498e+00	(-1.44432157937341e-01dB,-2.22619057330935e+00Ḟ)
4.16869383470336e+00	(-1.45064338371791e-01dB,-2.33099457242901e+00Ḟ)
4.36515832240167e+00	(-1.45757404681576e-01dB,-2.44072109497722e+00Ḟ)
4.57088189614876e+00	(-1.46517209676267e-01dB,-2.55559965885495e+00Ḟ)
4.78630092322640e+00	(-1.47350166529696e-01dB,-2.67587023393933e+00Ḟ)
5.01187233627274e+00	(-1.48263301974194e-01dB,-2.80178368102629e+00Ḟ)
5.24807460249774e+00	(-1.49264314456733e-01dB,-2.93360220361268e+00Ḟ)
5.49540873857626e+00	(-1.50361637693314e-01dB,-3.07159981199677e+00Ḟ)
5.75439937337159e+00	(-1.51564510108283e-01dB,-3.21606279897360e+00Ḟ)
6.02559586074359e+00	(-1.52883050669887e-01dB,-3.36729022619905e+00Ḟ)
6.30957344480195e+00	(-1.54328341682357e-01dB,-3.52559442003931e+00Ḟ)
6.60693448007598e+00	(-1.55912519135277e-01dB,-3.69130147541715e+00Ḟ)
6.91830970918939e+00	(-1.57648871250668e-01dB,-3.86475176585467e+00Ḟ)
7.24435960074992e+00	(-1.59551945917484e-01dB,-4.04630045750089e+00Ḟ)
7.58577575029186e+00	(-1.61637667749529e-01dB,-4.23631802449676e+00Ḟ)
7.94328234724284e+00	(-1.63923465545920e-01dB,-4.43519076251613e+00Ḟ)
8.31763771102674e+00	(-1.66428410985911e-01dB,-4.64332129673623e+00Ḟ)
8.70963589956084e+00	(-1.69173369429213e-01dB,-4.86112907982780e+00Ḟ)
9.12010839355913e+00	(-1.72181163744103e-01dB,-5.08905087479128e+00Ḟ)
9.54992586021439e+00	(-1.75476752120904e-01dB,-5.32754121661565e+00Ḟ)
1.00000000000000e+01	(-1.79087420866505e-01dB,-5.57707284576400e+00Ḟ)
1.04712854805090e+01	(-1.83042993205151e-01dB,-5.83813710539528e+00Ḟ)
1.09647819614319e+01	(-1.87376055127654e-01dB,-6.11124429301815e+00Ḟ)
1.14815362149689e+01	(-1.92122199342570e-01dB,-6.39692395588907e+00Ḟ)
1.20226443461742e+01	(-1.97320288368496e-01dB,-6.69572511796025e+00Ḟ)
1.25892541179417e+01	(-2.03012737780403e-01dB,-7.00821642448744e+00Ḟ)
1.31825673855641e+01	(-2.09245820572408e-01dB,-7.33498618854359e+00Ḟ)
1.38038426460289e+01	(-2.16069993503166e-01dB,-7.67664232166471e+00Ḟ)
1.44543977074593e+01	(-2.23540246179681e-01dB,-8.03381212861832e+00Ḟ)
1.51356124843621e+01	(-2.31716473458227e-01dB,-8.40714194390356e+00Ḟ)
1.58489319246112e+01	(-2.40663871520755e-01dB,-8.79729658503192e+00Ḟ)
1.65958690743757e+01	(-2.50453357697808e-01dB,-9.20495859492382e+00Ḟ)
1.73780082874938e+01	(-2.61162013747771e-01dB,-9.63082724292941e+00Ḟ)
1.81970085860999e+01	(-2.72873551849205e-01dB,-1.00756172510788e+01Ḟ)
1.90546071796326e+01	(-2.85678802017093e-01dB,-1.05400572092372e+01Ḟ)
1.99526231496889e+01	(-2.99676218987033e-01dB,-1.10248876399853e+01Ḟ)
2.08929613085405e+01	(-3.14972405821183e-01dB,-1.15308586713441e+01Ḟ)
2.18776162394956e+01	(-3.31682650556974e-01dB,-1.20587272730776e+01Ḟ)
2.29086765276778e+01	(-3.49931471134700e-01dB,-1.26092540103693e+01Ḟ)
2.39883291901950e+01	(-3.69853162587917e-01dB,-1.31831992674219e+01Ḟ)
2.51188643150959e+01	(-3.91592339061847e-01dB,-1.37813188931793e+01Ḟ)
2.63026799189540e+01	(-4.15304461631371e-01dB,-1.44043592222304e+01Ḟ)
2.75422870333818e+01	(-4.41156341129305e-01dB,-1.50530514263471e+01Ḟ)
2.88403150312662e+01	(-4.69326603284419e-01dB,-1.57281051563954e+01Ḟ)
3.01995172040203e+01	(-5.00006101429437e-01dB,-1.64302014409677e+01Ḟ)
3.16227766016840e+01	(-5.33398259922623e-01dB,-1.71599848174249e+01Ḟ)
3.31131121482593e+01	(-5.69719329281363e-01dB,-1.79180546835576e+01Ḟ)
3.46736850452534e+01	(-6.09198531950202e-01dB,-1.87049558741985e+01Ḟ)
3.63078054770103e+01	(-6.52078075707095e-01dB,-1.95211684872016e+01Ḟ)
3.80189396320563e+01	(-6.98613010104234e-01dB,-2.03670970075179e+01Ḟ)
3.98107170553500e+01	(-7.49070900174520e-01dB,-2.12430588067825e+01Ḟ)
4.16869383470338e+01	(-8.03731291126139e-01dB,-2.21492721287521e+01Ḟ)
4.36515832240169e+01	(-8.62884938062599e-01dB,-2.30858437077796e+01Ḟ)
4.57088189614878e+01	(-9.26832776147033e-01dB,-2.40527562075112e+01Ḟ)
4.78630092322641e+01	(-9.95884609277557e-01dB,-2.50498557090231e+01Ḟ)
5.01187233627275e+01	(-1.07035749943886e+00dB,-2.60768395201118e+01Ḟ)
5.24807460249776e+01	(-1.15057384462960e+00dB,-2.71332446182539e+01Ḟ)
5.49540873857628e+01	(-1.23685914069664e+00dB,-2.82184370763736e+01Ḟ)
5.75439937337161e+01	(-1.32953943156391e+00dB,-2.93316028499581e+01Ḟ)
6.02559586074362e+01	(-1.42893846309764e+00dB,-3.04717403230475e+01Ḟ)
6.30957344480197e+01	(-1.53537456794727e+00dB,-3.16376550158369e+01Ḟ)
6.60693448007600e+01	(-1.64915732174387e+00dB,-3.28279568449317e+01Ḟ)
6.91830970918941e+01	(-1.77058402443352e+00dB,-3.40410602960891e+01Ḟ)
7.24435960074995e+01	(-1.89993607357559e+00dB,-3.52751878167835e+01Ḟ)
7.58577575029189e+01	(-2.03747530829563e+00dB,-3.65283766616544e+01Ḟ)
7.94328234724287e+01	(-2.18344041235727e+00dB,-3.77984893288572e+01Ḟ)
8.31763771102677e+01	(-2.33804347161455e+00dB,-3.90832276122801e+01Ḟ)
8.70963589956087e+01	(-2.50146678412758e+00dB,-4.03801501681035e+01Ḟ)
9.12010839355916e+01	(-2.67386001984513e+00dB,-4.16866933604341e+01Ḟ)
9.54992586021443e+01	(-2.85533782062043e+00dB,-4.30001950173121e+01Ḟ)
1.00000000000001e+02	(-3.04597792041620e+00dB,-4.43179206034517e+01Ḟ)
1.04712854805091e+02	(-3.24581985019694e+00dB,-4.56370912080330e+01Ḟ)
1.09647819614319e+02	(-3.45486427291891e+00dB,-4.69549126622375e+01Ḟ)
1.14815362149689e+02	(-3.67307297223739e+00dB,-4.82686050481611e+01Ḟ)
1.20226443461742e+02	(-3.90036949533366e+00dB,-4.95754318421551e+01Ḟ)
1.25892541179418e+02	(-4.13664042701878e+00dB,-5.08727279530063e+01Ḟ)
1.31825673855642e+02	(-4.38173725041186e+00dB,-5.21579259672956e+01Ḟ)
1.38038426460290e+02	(-4.63547873028874e+00dB,-5.34285799969550e+01Ḟ)
1.44543977074594e+02	(-4.89765373970312e+00dB,-5.46823866313554e+01Ḟ)
1.51356124843622e+02	(-5.16802443940612e+00dB,-5.59172026207571e+01Ḟ)
1.58489319246113e+02	(-5.44632971328977e+00dB,-5.71310590512424e+01Ḟ)
1.65958690743757e+02	(-5.73228876154444e+00dB,-5.83221719051071e+01Ḟ)
1.73780082874939e+02	(-6.02560475609715e+00dB,-5.94889490275367e+01Ḟ)
1.81970085861000e+02	(-6.32596846957854e+00dB,-6.06299936339943e+01Ḟ)
1.90546071796326e+02	(-6.63306179875297e+00dB,-6.17441045884585e+01Ḟ)
1.99526231496890e+02	(-6.94656111515306e+00dB,-6.28302737576696e+01Ḟ)
2.08929613085406e+02	(-7.26614038867989e+00dB,-6.38876807997714e+01Ḟ)
2.18776162394957e+02	(-7.59147404333199e+00dB,-6.49156857776653e+01Ḟ)
2.29086765276779e+02	(-7.92223951728876e+00dB,-6.59138199997031e+01Ḟ)
2.39883291901951e+02	(-8.25811951170974e+00dB,-6.68817754856741e+01Ḟ)
2.51188643150960e+02	(-8.59880392342098e+00dB,-6.78193934374692e+01Ḟ)
2.63026799189540e+02	(-8.94399146586746e+00dB,-6.87266520646955e+01Ḟ)
2.75422870333819e+02	(-9.29339099020839e+00dB,-6.96036540791094e+01Ḟ)
2.88403150312663e+02	(-9.64672252421482e+00dB,-7.04506141310063e+01Ḟ)
3.01995172040204e+02	(-1.00037180507902e+01dB,-7.12678464182465e+01Ḟ)
3.16227766016841e+02	(-1.03641220506230e+01dB,-7.20557526565224e+01Ḟ)
3.31131121482594e+02	(-1.07276918349011e+01dB,-7.28148105593625e+01Ḟ)
3.46736850452535e+02	(-1.10941976943706e+01dB,-7.35455629394248e+01Ḟ)
3.63078054770105e+02	(-1.14634228905324e+01dB,-7.42486075095374e+01Ḟ)
3.80189396320565e+02	(-1.18351635136251e+01dB,-7.49245874331414e+01Ḟ)
3.98107170553501e+02	(-1.22092282304494e+01dB,-7.55741826493011e+01Ḟ)
4.16869383470339e+02	(-1.25854379431774e+01dB,-7.61981019772375e+01Ḟ)
4.36515832240170e+02	(-1.29636253782132e+01dB,-7.67970759890862e+01Ḟ)
4.57088189614879e+02	(-1.33436346220363e+01dB,-7.73718506269402e+01Ḟ)
4.78630092322643e+02	(-1.37253206188292e+01dB,-7.79231815307972e+01Ḟ)
5.01187233627277e+02	(-1.41085486426547e+01dB,-7.84518290373371e+01Ḟ)
5.24807460249778e+02	(-1.44931937550292e+01dB,-7.89585538050964e+01Ḟ)
5.49540873857630e+02	(-1.48791402569718e+01dB,-7.94441130191490e+01Ḟ)
5.75439937337163e+02	(-1.52662811430083e+01dB,-7.99092571275084e+01Ḟ)
6.02559586074364e+02	(-1.56545175631855e+01dB,-8.03547270617629e+01Ḟ)
6.30957344480200e+02	(-1.60437582978898e+01dB,-8.07812518956936e+01Ḟ)
6.60693448007603e+02	(-1.64339192491766e+01dB,-8.11895468975274e+01Ḟ)
6.91830970918944e+02	(-1.68249229513750e+01dB,-8.15803119338601e+01Ḟ)
7.24435960074998e+02	(-1.72166981029381e+01dB,-8.19542301859732e+01Ḟ)
7.58577575029192e+02	(-1.76091791208370e+01dB,-8.23119671421217e+01Ḟ)
7.94328234724290e+02	(-1.80023057182464e+01dB,-8.26541698322969e+01Ḟ)
8.31763771102680e+02	(-1.83960225058098e+01dB,-8.29814662748737e+01Ḟ)
8.70963589956090e+02	(-1.87902786164111e+01dB,-8.32944651073872e+01Ḟ)
9.12010839355920e+02	(-1.91850273530850e+01dB,-8.35937553763912e+01Ḟ)
9.54992586021446e+02	(-1.95802258594718e+01dB,-8.38799064639257e+01Ḟ)
1.00000000000001e+03	(-1.99758348120531e+01dB,-8.41534681305092e+01Ḟ)
1.04712854805091e+03	(-2.03718181332740e+01dB,-8.44149706568021e+01Ḟ)
1.09647819614320e+03	(-2.07681427245732e+01dB,-8.46649250681241e+01Ḟ)
1.14815362149690e+03	(-2.11647782182803e+01dB,-8.49038234278806e+01Ḟ)
1.20226443461743e+03	(-2.15616967473111e+01dB,-8.51321391876368e+01Ḟ)
1.25892541179418e+03	(-2.19588727315759e+01dB,-8.53503275831156e+01Ḟ)
1.31825673855642e+03	(-2.23562826800215e+01dB,-8.55588260667623e+01Ḟ)
1.38038426460290e+03	(-2.27539050072422e+01dB,-8.57580547687493e+01Ḟ)
1.44543977074594e+03	(-2.31517198636185e+01dB,-8.59484169793930e+01Ḟ)
1.51356124843623e+03	(-2.35497089779787e+01dB,-8.61302996469220e+01Ḟ)
1.58489319246113e+03	(-2.39478555118071e+01dB,-8.63040738854015e+01Ḟ)
1.65958690743758e+03	(-2.43461439240677e+01dB,-8.64700954883788e+01Ḟ)
1.73780082874940e+03	(-2.47445598457515e+01dB,-8.66287054444810e+01Ḟ)
1.81970085861001e+03	(-2.51430899632925e+01dB,-8.67802304517876e+01Ḟ)
1.90546071796327e+03	(-2.55417219100439e+01dB,-8.69249834283101e+01Ḟ)
1.99526231496890e+03	(-2.59404441650401e+01dB,-8.70632640163642e+01Ḟ)
2.08929613085406e+03	(-2.63392459583103e+01dB,-8.71953590790063e+01Ḟ)
2.18776162394958e+03	(-2.67381171820418e+01dB,-8.73215431870481e+01Ḟ)
2.29086765276780e+03	(-2.71370483069281e+01dB,-8.74420790954568e+01Ḟ)
2.39883291901952e+03	(-2.75360303030602e+01dB,-8.75572182081992e+01Ḟ)
2.51188643150961e+03	(-2.79350545647518e+01dB,-8.76672010308096e+01Ḟ)
2.63026799189541e+03	(-2.83341128387083e+01dB,-8.77722576101465e+01Ḟ)
2.75422870333820e+03	(-2.87331971549719e+01dB,-8.78726079609635e+01Ḟ)
2.88403150312664e+03	(-2.91322997600888e+01dB,-8.79684624790565e+01Ḟ)
3.01995172040205e+03	(-2.95314130519619e+01dB,-8.80600223408638e+01Ḟ)
3.16227766016842e+03	(-2.99305295158539e+01dB,-8.81474798894948e+01Ḟ)
3.31131121482595e+03	(-3.03296416610208e+01dB,-8.82310190072422e+01Ḟ)
3.46736850452536e+03	(-3.07287419574479e+01dB,-8.83108154747030e+01Ḟ)
3.63078054770106e+03	(-3.11278227721650e+01dB,-8.83870373166880e+01Ḟ)
3.80189396320566e+03	(-3.15268763046069e+01dB,-8.84598451351468e+01Ḟ)
3.98107170553503e+03	(-3.19258945204757e+01dB,-8.85293924293708e+01Ḟ)
4.16869383470341e+03	(-3.23248690835470e+01dB,-8.85958259037684e+01Ḟ)
4.36515832240172e+03	(-3.27237912848403e+01dB,-8.86592857635277e+01Ḟ)
4.57088189614881e+03	(-3.31226519685512e+01dB,-8.87199059985007e+01Ḟ)
4.78630092322645e+03	(-3.35214414541107e+01dB,-8.87778146556547e+01Ḟ)
5.01187233627279e+03	(-3.39201494537034e+01dB,-8.88331341004474e+01Ḟ)
5.24807460249780e+03	(-3.43187649845347e+01dB,-8.88859812674841e+01Ḟ)
5.49540873857632e+03	(-3.47172762750860e+01dB,-8.89364679008216e+01Ḟ)
5.75439937337165e+03	(-3.51156706645472e+01dB,-8.89847007842814e+01Ḟ)
6.02559586074366e+03	(-3.55139344945500e+01dB,-8.90307819621318e+01Ḟ)
6.30957344480202e+03	(-3.59120529922551e+01dB,-8.90748089504986e+01Ḟ)
6.60693448007605e+03	(-3.63100101437691e+01dB,-8.91168749398559e+01Ḟ)
6.91830970918946e+03	(-3.67077885567742e+01dB,-8.91570689889429e+01Ḟ)
7.24435960075000e+03	(-3.71053693111579e+01dB,-8.91954762104490e+01Ḟ)
7.58577575029195e+03	(-3.75027317963135e+01dB,-8.92321779487973e+01Ḟ)
7.94328234724293e+03	(-3.78998535336585e+01dB,-8.92672519503534e+01Ḟ)
8.31763771102683e+03	(-3.82967099827787e+01dB,-8.93007725263753e+01Ḟ)
8.70963589956093e+03	(-3.86932743294464e+01dB,-8.93328107090123e+01Ḟ)
9.12010839355923e+03	(-3.90895172535875e+01dB,-8.93634344006555e+01Ḟ)
9.54992586021450e+03	(-3.94854066750746e+01dB,-8.93927085169290e+01Ḟ)
1.00000000000001e+04	(-3.98809074750051e+01dB,-8.94206951236082e+01Ḟ)
1.04712854805092e+04	(-4.02759811898754e+01dB,-8.94474535677402e+01Ḟ)
1.09647819614320e+04	(-4.06705856757873e+01dB,-8.94730406032359e+01Ḟ)
1.14815362149690e+04	(-4.10646747395126e+01dB,-8.94975105111949e+01Ḟ)
1.20226443461743e+04	(-4.14581977328943e+01dB,-8.95209152152203e+01Ḟ)
1.25892541179419e+04	(-4.18510991066675e+01dB,-8.95433043919708e+01Ḟ)
1.31825673855643e+04	(-4.22433179193446e+01dB,-8.95647255771974e+01Ḟ)
1.38038426460291e+04	(-4.26347872963049e+01dB,-8.95852242675029e+01Ḟ)
1.44543977074595e+04	(-4.30254338336628e+01dB,-8.96048440180621e+01Ḟ)
1.51356124843623e+04	(-4.34151769408468e+01dB,-8.96236265365391e+01Ḟ)
1.58489319246114e+04	(-4.38039281150833e+01dB,-8.96416117734331e+01Ḟ)
1.65958690743759e+04	(-4.41915901401472e+01dB,-8.96588380090899e+01Ḟ)
1.73780082874940e+04	(-4.45780562007795e+01dB,-8.96753419376151e+01Ḟ)
1.81970085861001e+04	(-4.49632089030736e+01dB,-8.96911587479302e+01Ḟ)
1.90546071796328e+04	(-4.53469191898631e+01dB,-8.97063222022216e+01Ḟ)
1.99526231496891e+04	(-4.57290451386820e+01dB,-8.97208647120383e+01Ḟ)
2.08929613085407e+04	(-4.61094306281662e+01dB,-8.97348174123115e+01Ḟ)
2.18776162394959e+04	(-4.64879038567919e+01dB,-8.97482102335837e+01Ḟ)
2.29086765276781e+04	(-4.68642756955343e+01dB,-8.97610719727586e+01Ḟ)
2.39883291901953e+04	(-4.72383378533219e+01dB,-8.97734303627106e+01Ḟ)
2.51188643150962e+04	(-4.76098608309682e+01dB,-8.97853121411313e+01Ḟ)
2.63026799189542e+04	(-4.79785916354870e+01dB,-8.97967431190313e+01Ḟ)
2.75422870333821e+04	(-4.83442512222079e+01dB,-8.98077482493782e+01Ḟ)
2.88403150312665e+04	(-4.87065316267438e+01dB,-8.98183516964204e+01Ḟ)
3.01995172040207e+04	(-4.90650927424293e+01dB,-8.98285769063354e+01Ḟ)
3.16227766016843e+04	(-4.94195586910796e+01dB,-8.98384466799611e+01Ḟ)
3.31131121482597e+04	(-4.97695137254969e+01dB,-8.98479832485048e+01Ḟ)
3.46736850452537e+04	(-5.01144975906534e+01dB,-8.98572083533148e+01Ḟ)
3.63078054770107e+04	(-5.04540002563663e+01dB,-8.98661433310284e+01Ḟ)
3.80189396320568e+04	(-5.07874559168421e+01dB,-8.98748092057116e+01Ḟ)
3.98107170553504e+04	(-5.11142361307896e+01dB,-8.98832267899926e+01Ḟ)
4.16869383470342e+04	(-5.14336419486465e+01dB,-8.98914167976921e+01Ḟ)
4.36515832240173e+04	(-5.17448948392194e+01dB,-8.98993999711143e+01Ḟ)
4.57088189614883e+04	(-5.20471261844883e+01dB,-8.99071972270285e+01Ḟ)
4.78630092322647e+04	(-5.23393650555100e+01dB,-8.99148298265286e+01Ḟ)
5.01187233627281e+04	(-5.26205239101587e+01dB,-8.99223195755152e+01Ḟ)
5.24807460249782e+04	(-5.28893817592025e+01dB,-8.99296890646522e+01Ḟ)
5.49540873857634e+04	(-5.31445642229344e+01dB,-8.99369619605511e+01Ḟ)
5.75439937337167e+04	(-5.33845197349405e+01dB,-8.99441633639623e+01Ḟ)
6.02559586074368e+04	(-5.36074909262338e+01dB,-8.99513202564127e+01Ḟ)
6.30957344480204e+04	(-5.38114799180444e+01dB,-8.99584620648108e+01Ḟ)
6.60693448007608e+04	(-5.39942058295786e+01dB,-8.99656213852279e+01Ḟ)
6.91830970918949e+04	(-5.41530522144971e+01dB,-8.99728349242699e+01Ḟ)
7.24435960075003e+04	(-5.42850012943931e+01dB,-8.99801447422131e+01Ḟ)
7.58577575029197e+04	(-5.43865506299720e+01dB,-8.99875999214142e+01Ḟ)
7.94328234724296e+04	(-5.44536060537123e+01dB,-8.99952588448681e+01Ḟ)
8.31763771102686e+04	(-5.44813419409151e+01dB,-9.00031923678009e+01Ḟ)
8.70963589956096e+04	(-5.44640156441646e+01dB,-9.00114883259490e+01Ḟ)
9.12010839355926e+04	(-5.43947161587428e+01dB,-9.00202580957529e+01Ḟ)
9.54992586021453e+04	(-5.42650160227896e+01dB,-9.00296463960850e+01Ḟ)
1.00000000000002e+05	(-5.40644767189689e+01dB,-9.00398463819759e+01Ḟ)
1.04712854805092e+05	(-5.37799248567737e+01dB,-9.00511237128592e+01Ḟ)
1.09647819614321e+05	(-5.33943556612485e+01dB,-9.00638565340982e+01Ḟ)
1.14815362149690e+05	(-5.28852023083080e+01dB,-9.00786052107808e+01Ḟ)
1.20226443461744e+05	(-5.22214654883264e+01dB,-9.00962413726868e+01Ḟ)
1.25892541179419e+05	(-5.13586515225175e+01dB,-9.01182049705754e+01Ḟ)
1.31825673855643e+05	(-5.02291209950780e+01dB,-9.01470670773967e+01Ḟ)
1.38038426460291e+05	(-4.87216805308246e+01dB,-9.01879280992163e+01Ḟ)
1.44543977074595e+05	(-4.66316857821435e+01dB,-9.02525749371901e+01Ḟ)
1.51356124843624e+05	(-4.35085530485463e+01dB,-9.03758644409586e+01Ḟ)
1.58489319246114e+05	(-3.79539144730860e+01dB,-9.07266348769451e+01Ḟ)
1.65958690743759e+05	(-1.02702697310877e+01dB,-1.07875997493304e+02Ḟ)
1.73780082874941e+05	(-3.76990975830720e+01dB,9.07299179109103e+01Ḟ)
1.81970085861002e+05	(-4.40167948884438e+01dB,9.03346275203565e+01Ḟ)
1.90546071796328e+05	(-4.76369369462171e+01dB,9.02018932720793e+01Ḟ)
1.99526231496892e+05	(-5.01106390771278e+01dB,9.01324155829021e+01Ḟ)
2.08929613085408e+05	(-5.19003738095837e+01dB,9.00874794110975e+01Ḟ)
2.18776162394960e+05	(-5.31954677138283e+01dB,9.00541890182205e+01Ḟ)
2.29086765276782e+05	(-5.40787724738626e+01dB,9.00268360736713e+01Ḟ)
2.39883291901954e+05	(-5.45770136684398e+01dB,9.00022465724215e+01Ḟ)
2.51188643150963e+05	(-5.46761453997773e+01dB,8.99781165107312e+01Ḟ)
2.63026799189543e+05	(-5.43191654827025e+01dB,8.99520677929811e+01Ḟ)
2.75422870333822e+05	(-5.33845181565952e+01dB,8.99204848124320e+01Ḟ)
2.88403150312666e+05	(-5.16199455744619e+01dB,8.98755344380262e+01Ḟ)
3.01995172040208e+05	(-4.84126130110995e+01dB,8.97923984933251e+01Ḟ)
3.16227766016844e+05	(-4.14643787619006e+01dB,8.95122563000053e+01Ḟ)
3.31131121482598e+05	(-3.31400836695834e+01dB,-8.87761658499569e+01Ḟ)
3.46736850452539e+05	(-4.66206906235338e+01dB,-8.97784509376766e+01Ḟ)
3.63078054770109e+05	(-5.13660307118250e+01dB,-8.99096090381672e+01Ḟ)
3.80189396320569e+05	(-5.38144006031183e+01dB,-8.99708837936540e+01Ḟ)
3.98107170553505e+05	(-5.48423567575085e+01dB,-9.00146808857184e+01Ḟ)
4.16869383470344e+05	(-5.45507620229709e+01dB,-9.00573122451004e+01Ḟ)
4.36515832240175e+05	(-5.25341439282561e+01dB,-9.01158777850783e+01Ḟ)
4.57088189614884e+05	(-4.69800273277491e+01dB,-9.02634841739495e+01Ḟ)
4.78630092322648e+05	(-3.21412499987734e+01dB,9.13835554721069e+01Ḟ)
