Freq.	V(n028)
Step Information: Run=1  (Step: 1/100)
1.00000000000000e+00	(-1.38288957013118e-01dB,-5.59946090919112e-01°)
1.04712854805090e+00	(-1.38328973885852e-01dB,-5.86333736273852e-01°)
1.09647819614319e+00	(-1.38372851090344e-01dB,-6.13964726255382e-01°)
1.14815362149688e+00	(-1.38420960978981e-01dB,-6.42897618371222e-01°)
1.20226443461741e+00	(-1.38473711810325e-01dB,-6.73193724006579e-01°)
1.25892541179417e+00	(-1.38531551210283e-01dB,-7.04917237343602e-01°)
1.31825673855641e+00	(-1.38594969965915e-01dB,-7.38135370226147e-01°)
1.38038426460289e+00	(-1.38664506184211e-01dB,-7.72918493238613e-01°)
1.44543977074593e+00	(-1.38740749851811e-01dB,-8.09340283260269e-01°)
1.51356124843621e+00	(-1.38824347832519e-01dB,-8.47477877779286e-01°)
1.58489319246111e+00	(-1.38916009346114e-01dB,-8.87412036258324e-01°)
1.65958690743756e+00	(-1.39016511973578e-01dB,-9.29227308852233e-01°)
1.73780082874938e+00	(-1.39126708240120e-01dB,-9.73012212774697e-01°)
1.81970085860999e+00	(-1.39247532830052e-01dB,-1.01885941664959e+00°)
1.90546071796325e+00	(-1.39380010494981e-01dB,-1.06686593315956e+00°)
1.99526231496888e+00	(-1.39525264721548e-01dB,-1.11713332032753e+00°)
2.08929613085404e+00	(-1.39684527230161e-01dB,-1.16976789178191e+00°)
2.18776162394956e+00	(-1.39859148385879e-01dB,-1.22488093634001e+00°)
2.29086765276778e+00	(-1.40050608605989e-01dB,-1.28258894727253e+00°)
2.39883291901949e+00	(-1.40260530861685e-01dB,-1.34301386160462e+00°)
2.51188643150958e+00	(-1.40490694376257e-01dB,-1.40628330980669e+00°)
2.63026799189539e+00	(-1.40743049632086e-01dB,-1.47253087624839e+00°)
2.75422870333817e+00	(-1.41019734814922e-01dB,-1.54189637075306e+00°)
2.88403150312661e+00	(-1.41323093825995e-01dB,-1.61452611162866e+00°)
3.01995172040202e+00	(-1.41655696013947e-01dB,-1.69057322049810e+00°)
3.16227766016839e+00	(-1.42020357786282e-01dB,-1.77019792927640e+00°)
3.31131121482592e+00	(-1.42420166278802e-01dB,-1.85356789959742e+00°)
3.46736850452532e+00	(-1.42858505273534e-01dB,-1.94085855499416e+00°)
3.63078054770102e+00	(-1.43339083578496e-01dB,-2.03225342607738e+00°)
3.80189396320562e+00	(-1.43865966095690e-01dB,-2.12794450895977e+00°)
3.98107170553498e+00	(-1.44443607827886e-01dB,-2.22813263708351e+00°)
4.16869383470336e+00	(-1.45076891098222e-01dB,-2.33302786659441e+00°)
4.36515832240167e+00	(-1.45771166273950e-01dB,-2.44284987530300e+00°)
4.57088189614876e+00	(-1.46532296320589e-01dB,-2.55782837521636e+00°)
4.78630092322640e+00	(-1.47366705530945e-01dB,-2.67820353851877e+00°)
5.01187233627274e+00	(-1.48281432812664e-01dB,-2.80422643675642e+00°)
5.24807460249774e+00	(-1.49284189939998e-01dB,-2.93615949286092e+00°)
5.49540873857626e+00	(-1.50383425217094e-01dB,-3.07427694547603e+00°)
5.75439937337159e+00	(-1.51588393031450e-01dB,-3.21886532486638e+00°)
6.02559586074359e+00	(-1.52909229818065e-01dB,-3.37022393947084e+00°)
6.30957344480195e+00	(-1.54357036988119e-01dB,-3.52866537191906e+00°)
6.60693448007598e+00	(-1.55943971427390e-01dB,-3.69451598301404e+00°)
6.91830970918939e+00	(-1.57683344205721e-01dB,-3.86811642187160e+00°)
7.24435960074992e+00	(-1.59589728187139e-01dB,-4.04982213999878e+00°)
7.58577575029186e+00	(-1.61679075275968e-01dB,-4.24000390665764e+00°)
7.94328234724284e+00	(-1.63968844085208e-01dB,-4.43904832233389e+00°)
8.31763771102674e+00	(-1.66478138849384e-01dB,-4.64735832656582e+00°)
8.70963589956084e+00	(-1.69227860465380e-01dB,-4.86535369569334e+00°)
9.12010839355913e+00	(-1.72240870575881e-01dB,-5.09347152535504e+00°)
9.54992586021439e+00	(-1.75542169657054e-01dB,-5.33216669168008e+00°)
1.00000000000000e+01	(-1.79159090107316e-01dB,-5.58191228416482e+00°)
1.04712854805090e+01	(-1.83121505361394e-01dB,-5.84320000212265e+00°)
1.09647819614319e+01	(-1.87462056073104e-01dB,-6.11654050537410e+00°)
1.14815362149689e+01	(-1.92216394419082e-01dB,-6.40246370846673e+00°)
1.20226443461742e+01	(-1.97423447563875e-01dB,-6.70151900619881e+00°)
1.25892541179417e+01	(-2.03125701299225e-01dB,-7.01427541651581e+00°)
1.31825673855641e+01	(-2.09369504813672e-01dB,-7.34132162500526e+00°)
1.38038426460289e+01	(-2.16205397463470e-01dB,-7.68326591315755e+00°)
1.44543977074593e+01	(-2.23688458294014e-01dB,-8.04073595034986e+00°)
1.51356124843621e+01	(-2.31878678885678e-01dB,-8.41437842711679e+00°)
1.58489319246112e+01	(-2.40841359881934e-01dB,-8.80485850469729e+00°)
1.65958690743757e+01	(-2.50647531260227e-01dB,-9.21285905314959e+00°)
1.73780082874938e+01	(-2.61374396050010e-01dB,-9.63907964748461e+00°)
1.81970085860999e+01	(-2.73105796745918e-01dB,-1.00842352883652e+01°)
1.90546071796326e+01	(-2.85932703112498e-01dB,-1.05490548109963e+01°)
1.99526231496889e+01	(-2.99953719413787e-01dB,-1.10342789429700e+01°)
2.08929613085405e+01	(-3.15275608304940e-01dB,-1.15406579691354e+01°)
2.18776162394956e+01	(-3.32013827684096e-01dB,-1.20689489591904e+01°)
2.29086765276778e+01	(-3.50293075724822e-01dB,-1.26199125117533e+01°)
2.39883291901950e+01	(-3.70247838040507e-01dB,-1.31943089674544e+01°)
2.51188643150959e+01	(-3.92022929524723e-01dB,-1.37928940432456e+01°)
2.63026799189540e+01	(-4.15774021800403e-01dB,-1.44164138410218e+01°)
2.75422870333818e+01	(-4.41668145458584e-01dB,-1.50655991860654e+01°)
2.88403150312662e+01	(-4.69884154346230e-01dB,-1.57411592551569e+01°)
3.01995172040203e+01	(-5.00613137124320e-01dB,-1.64437744608519e+01°)
3.16227766016840e+01	(-5.34058759200005e-01dB,-1.71740885678122e+01°)
3.31131121482593e+01	(-5.70437515988946e-01dB,-1.79327000296824e+01°)
3.46736850452534e+01	(-6.09978876394545e-01dB,-1.87201525511758e+01°)
3.63078054770103e+01	(-6.52925293471668e-01dB,-1.95369249002144e+01°)
3.80189396320563e+01	(-6.99532057646723e-01dB,-2.03834200193502e+01°)
3.98107170553500e+01	(-7.50066966708068e-01dB,-2.12599535144691e+01°)
4.16869383470338e+01	(-8.04809786284105e-01dB,-2.21667416317852e+01°)
4.36515832240169e+01	(-8.64051474867200e-01dB,-2.31038888710360e+01°)
4.57088189614878e+01	(-9.28093148835341e-01dB,-2.40713754228506e+01°)
4.78630092322641e+01	(-9.97244765605292e-01dB,-2.50690446603142e+01°)
5.01187233627275e+01	(-1.07182350717251e+00dB,-2.60965909572397e+01°)
5.24807460249776e+01	(-1.15215185206425e+00dB,-2.71535481464053e+01°)
5.49540873857628e+01	(-1.23855533119534e+00dB,-2.82392789675242e+01°)
5.75439937337161e+01	(-1.33135997230133e+00dB,-2.93529658839632e+01°)
6.02559586074362e+01	(-1.43088944840999e+00dB,-3.04936036659690e+01°)
6.30957344480197e+01	(-1.53746195793212e+00dB,-3.16599941430817e+01°)
6.60693448007600e+01	(-1.65138687700206e+00dB,-3.28507435163832e+01°)
6.91830970918941e+01	(-1.77296123810279e+00dB,-3.40642625896095e+01°)
7.24435960074995e+01	(-1.90246610204254e+00dB,-3.52987702252609e+01°)
7.58577575029189e+01	(-2.04016290217805e+00dB,-3.65523002571648e+01°)
7.94328234724287e+01	(-2.18628984951155e+00dB,-3.78227119955080e+01°)
8.31763771102677e+01	(-2.34105849401548e+00dB,-3.91077043470272e+01°)
8.70963589956087e+01	(-2.50465054048521e+00dB,-4.04048334463306e+01°)
9.12010839355916e+01	(-2.67721501575065e+00dB,-4.17115335605388e+01°)
9.54992586021443e+01	(-2.85886587785119e+00dB,-4.30251408960618e+01°)
1.00000000000001e+02	(-3.04968014677896e+00dB,-4.43429198116416e+01°)
1.04712854805091e+02	(-3.24969662095723e+00dB,-4.56620908341453e+01°)
1.09647819614319e+02	(-3.45891522447249e+00dB,-4.69798597905054e+01°)
1.14815362149689e+02	(-3.67729700825228e+00dB,-4.82934473167336e+01°)
1.20226443461742e+02	(-3.90476480514086e+00dB,-4.96001179870859e+01°)
1.25892541179418e+02	(-4.14120451560316e+00dB,-5.08972083244345e+01°)
1.31825673855642e+02	(-4.38646697895862e+00dB,-5.21821530055032e+01°)
1.38038426460290e+02	(-4.64037036591321e+00dB,-5.34525086577942e+01°)
1.44543977074594e+02	(-4.90270301273604e+00dB,-5.47059747527826e+01°)
1.51356124843622e+02	(-5.17322660644435e+00dB,-5.59404112246669e+01°)
1.58489319246113e+02	(-5.45167962414743e+00dB,-5.71538525773652e+01°)
1.65958690743757e+02	(-5.73778092825749e+00dB,-5.83445183762110e+01°)
1.73780082874939e+02	(-6.03123342222553e+00dB,-5.95108201474796e+01°)
1.81970085861000e+02	(-6.33172767820763e+00dB,-6.06513648221656e+01°)
1.90546071796326e+02	(-6.63894545780812e+00dB,-6.17649549557531e+01°)
1.99526231496890e+02	(-6.95256305887187e+00dB,-6.28505860303734e+01°)
2.08929613085406e+02	(-7.27225443434627e+00dB,-6.39074411985156e+01°)
2.18776162394957e+02	(-7.59769404262569e+00dB,-6.49348838590293e+01°)
2.29086765276779e+02	(-7.92855940184391e+00dB,-6.59324484681019e+01°)
2.39883291901951e+02	(-8.26453333269620e+00dB,-6.68998299829302e+01°)
2.51188643150960e+02	(-8.60530588515146e+00dB,-6.78368723170047e+01°)
2.63026799189540e+02	(-8.95057595359023e+00dB,-6.87435561566561e+01°)
2.75422870333819e+02	(-9.30005259237295e+00dB,-6.96199864519799e+01°)
2.88403150312663e+02	(-9.65345604959061e+00dB,-7.04663798544874e+01°)
3.01995172040204e+02	(-1.00105185408811e+01dB,-7.12830523313579e+01°)
3.16227766016841e+02	(-1.03709847878611e+01dB,-7.20704071441085e+01°)
3.31131121482594e+02	(-1.07346123471172e+01dB,-7.28289233394464e+01°)
3.46736850452535e+02	(-1.11011717560376e+01dB,-7.35591448631954e+01°)
3.63078054770105e+02	(-1.14704465212606e+01dB,-7.42616703751633e+01°)
3.80189396320565e+02	(-1.18422329743638e+01dB,-7.49371438141015e+01°)
3.98107170553501e+02	(-1.22163400178135e+01dB,-7.55862457375024e+01°)
4.16869383470339e+02	(-1.25925887822798e+01dB,-7.62096854408446e+01°)
4.36515832240170e+02	(-1.29708122143464e+01dB,-7.68081938447145e+01°)
4.57088189614879e+02	(-1.33508546115004e+01dB,-7.73825171256600e+01°)
4.78630092322643e+02	(-1.37325711191696e+01dB,-7.79334110572421e+01°)
5.01187233627277e+02	(-1.41158272025321e+01dB,-7.84616360211099e+01°)
5.24807460249778e+02	(-1.45004981039101e+01dB,-7.89679526435987e+01°)
5.49540873857630e+02	(-1.48864682947961e+01dB,-7.94531180109364e+01°)
5.75439937337163e+02	(-1.52736309299628e+01dB,-7.99178824152600e+01°)
6.02559586074364e+02	(-1.56618873096840e+01dB,-8.03629865839810e+01°)
6.30957344480200e+02	(-1.60511463548425e+01dB,-8.07891593462676e+01°)
6.60693448007603e+02	(-1.64413240986081e+01dB,-8.11971156923457e+01°)
6.91830970918944e+02	(-1.68323431974376e+01dB,-8.15875551837011e+01°)
7.24435960074998e+02	(-1.72241324633499e+01dB,-8.19611606749557e+01°)
7.58577575029192e+02	(-1.76166264187667e+01dB,-8.23185973110541e+01°)
7.94328234724290e+02	(-1.80097648746525e+01dB,-8.26605117663178e+01°)
8.31763771102680e+02	(-1.84034925322396e+01dB,-8.29875316948326e+01°)
8.70963589956090e+02	(-1.87977586082543e+01dB,-8.33002653644643e+01°)
9.12010839355920e+02	(-1.91925164832743e+01dB,-8.35993014495093e+01°)
9.54992586021446e+02	(-1.95877233726191e+01dB,-8.38852089595495e+01°)
1.00000000000001e+03	(-1.99833400190063e+01dB,-8.41585372844751e+01°)
1.04712854805091e+03	(-2.03793304060786e+01dB,-8.44198163378587e+01°)
1.09647819614320e+03	(-2.07756614918206e+01dB,-8.46695567829050e+01°)
1.14815362149690e+03	(-2.11723029608256e+01dB,-8.49082503270586e+01°)
1.20226443461743e+03	(-2.15692269943407e+01dB,-8.51363700730449e+01°)
1.25892541179418e+03	(-2.19664080570079e+01dB,-8.53543709156448e+01°)
1.31825673855642e+03	(-2.23638226992203e+01dB,-8.55626899748696e+01°)
1.38038426460290e+03	(-2.27614493740295e+01dB,-8.57617470574360e+01°)
1.44543977074594e+03	(-2.31592682675669e+01dB,-8.59519451395263e+01°)
1.51356124843623e+03	(-2.35572611419685e+01dB,-8.61336708647963e+01°)
1.58489319246113e+03	(-2.39554111898349e+01dB,-8.63072950524478e+01°)
1.65958690743758e+03	(-2.43537028992929e+01dB,-8.64731732109441e+01°)
1.73780082874940e+03	(-2.47521219287670e+01dB,-8.66316460536138e+01°)
1.81970085861001e+03	(-2.51506549906108e+01dB,-8.67830400129730e+01°)
1.90546071796327e+03	(-2.55492897427872e+01dB,-8.69276677511092e+01°)
1.99526231496890e+03	(-2.59480146878267e+01dB,-8.70658286639201e+01°)
2.08929613085406e+03	(-2.63468190783291e+01dB,-8.71978093773845e+01°)
2.18776162394958e+03	(-2.67456928283109e+01dB,-8.73238842343873e+01°)
2.29086765276780e+03	(-2.71446264297299e+01dB,-8.74443157709091e+01°)
2.39883291901952e+03	(-2.75436108735517e+01dB,-8.75593551806447e+01°)
2.51188643150961e+03	(-2.79426375747470e+01dB,-8.76692427673336e+01°)
2.63026799189541e+03	(-2.83416983006316e+01dB,-8.77742083842707e+01°)
2.75422870333820e+03	(-2.87407851019835e+01dB,-8.78744718606254e+01°)
2.88403150312664e+03	(-2.91398902463837e+01dB,-8.79702434143337e+01°)
3.01995172040205e+03	(-2.95390061532439e+01dB,-8.80617240514430e+01°)
3.16227766016842e+03	(-2.99381253299928e+01dB,-8.81491059518834e+01°)
3.31131121482595e+03	(-3.03372403088951e+01dB,-8.82325728417271e+01°)
3.46736850452536e+03	(-3.07363435839825e+01dB,-8.83123003520578e+01°)
3.63078054770106e+03	(-3.11354275475731e+01dB,-8.83884563646329e+01°)
3.80189396320566e+03	(-3.15344844258462e+01dB,-8.84612013445660e+01°)
3.98107170553503e+03	(-3.19335062129323e+01dB,-8.85306886602932e+01°)
4.16869383470341e+03	(-3.23324846029615e+01dB,-8.85970648911161e+01°)
4.36515832240172e+03	(-3.27314109194929e+01dB,-8.86604701226403e+01°)
4.57088189614881e+03	(-3.31302760417246e+01dB,-8.87210382304400e+01°)
4.78630092322645e+03	(-3.35290703268530e+01dB,-8.87788971522980e+01°)
5.01187233627279e+03	(-3.39277835279141e+01dB,-8.88341691493751e+01°)
5.24807460249780e+03	(-3.43264047064011e+01dB,-8.88869710566693e+01°)
5.49540873857632e+03	(-3.47249221389003e+01dB,-8.89374145231277e+01°)
5.75439937337165e+03	(-3.51233232169378e+01dB,-8.89856062417752e+01°)
6.02559586074366e+03	(-3.55215943391632e+01dB,-8.90316481702184e+01°)
6.30957344480202e+03	(-3.59197207949292e+01dB,-8.90756377418854e+01°)
6.60693448007605e+03	(-3.63176866382465e+01dB,-8.91176680683509e+01°)
6.91830970918946e+03	(-3.67154745510019e+01dB,-8.91578281330955e+01°)
7.24435960075000e+03	(-3.71130656942320e+01dB,-8.91962029770378e+01°)
7.58577575029195e+03	(-3.75104395461301e+01dB,-8.92328738761718e+01°)
7.94328234724293e+03	(-3.79075737253391e+01dB,-8.92679185116355e+01°)
8.31763771102683e+03	(-3.83044437979469e+01dB,-8.93014111325253e+01°)
8.70963589956093e+03	(-3.87010230664380e+01dB,-8.93334227117666e+01°)
9.12010839355923e+03	(-3.90972823386887e+01dB,-8.93640210953383e+01°)
9.54992586021450e+03	(-3.94931896748901e+01dB,-8.93932711451460e+01°)
1.00000000000001e+04	(-3.98887101100707e+01dB,-8.94212348758246e+01°)
1.04712854805092e+04	(-4.02838053496412e+01dB,-8.94479715857486e+01°)
1.09647819614320e+04	(-4.06784334351122e+01dB,-8.94735379825177e+01°)
1.14815362149690e+04	(-4.10725483768257e+01dB,-8.94979883031795e+01°)
1.20226443461743e+04	(-4.14660997501969e+01dB,-8.95213744294444e+01°)
1.25892541179419e+04	(-4.18590322515683e+01dB,-8.95437459981425e+01°)
1.31825673855643e+04	(-4.22512852093440e+01dB,-8.95651505071666e+01°)
1.38038426460291e+04	(-4.26427920455671e+01dB,-8.95856334171408e+01°)
1.44543977074595e+04	(-4.30334796825458e+01dB,-8.96052382490521e+01°)
1.51356124843623e+04	(-4.34232678884896e+01dB,-8.96240066780795e+01°)
1.58489319246114e+04	(-4.38120685553874e+01dB,-8.96419786238538e+01°)
1.65958690743759e+04	(-4.41997849015313e+01dB,-8.96591923373820e+01°)
1.73780082874940e+04	(-4.45863105901341e+01dB,-8.96756844848738e+01°)
1.81970085861001e+04	(-4.49715287543951e+01dB,-8.96914902287097e+01°)
1.90546071796328e+04	(-4.53553109181143e+01dB,-8.97066433057989e+01°)
1.99526231496891e+04	(-4.57375157994929e+01dB,-8.97211761035838e+01°)
2.08929613085407e+04	(-4.61179879840798e+01dB,-8.97351197339606e+01°)
2.18776162394959e+04	(-4.64965564508540e+01dB,-8.97485041054041e+01°)
2.29086765276781e+04	(-4.68730329331437e+01dB,-8.97613579936046e+01°)
2.39883291901953e+04	(-4.72472100933919e+01dB,-8.97737091109546e+01°)
2.51188643150962e+04	(-4.76188594876119e+01dB,-8.97855841752588e+01°)
2.63026799189542e+04	(-4.79877292916264e+01dB,-8.97970089780841e+01°)
2.75422870333821e+04	(-4.83535417567331e+01dB,-8.98080084532253e+01°)
2.88403150312665e+04	(-4.87159903571216e+01dB,-8.98186067458306e+01°)
3.01995172040207e+04	(-4.90747365849815e+01dB,-8.98288272828221e+01°)
3.16227766016843e+04	(-4.94294063415484e+01dB,-8.98386928453584e+01°)
3.31131121482597e+04	(-4.97795858629930e+01dB,-8.98482256442283e+01°)
3.46736850452537e+04	(-5.01248171086703e+01dB,-8.98574473992459e+01°)
3.63078054770107e+04	(-5.04645925252656e+01dB,-8.98663794239469e+01°)
3.80189396320568e+04	(-5.07983490831164e+01dB,-8.98750427171810e+01°)
3.98107170553504e+04	(-5.11254614595266e+01dB,-8.98834580635785e+01°)
4.16869383470342e+04	(-5.14452342170334e+01dB,-8.98916461453606e+01°)
4.36515832240173e+04	(-5.17568927907146e+01dB,-8.98996276686144e+01°)
4.57088189614883e+04	(-5.20595730555798e+01dB,-8.99074235080065e+01°)
4.78630092322647e+04	(-5.23523091899308e+01dB,-8.99150548750482e+01°)
5.01187233627281e+04	(-5.26340194792773e+01dB,-8.99225435165530e+01°)
5.24807460249782e+04	(-5.29034896123599e+01dB,-8.99299119520029e+01°)
5.49540873857634e+04	(-5.31593528982155e+01dB,-8.99371837613867e+01°)
5.75439937337167e+04	(-5.34000666698858e+01dB,-8.99443839390244e+01°)
6.02559586074368e+04	(-5.36238839202608e+01dB,-8.99515393344477e+01°)
6.30957344480204e+04	(-5.38288189152318e+01dB,-8.99586792093221e+01°)
6.60693448007608e+04	(-5.40126051140437e+01dB,-8.99658359508495e+01°)
6.91830970918949e+04	(-5.41726431440193e+01dB,-8.99730459989227e+01°)
7.24435960075003e+04	(-5.43059357461009e+01dB,-8.99803510694910e+01°)
7.58577575029197e+04	(-5.44090054025888e+01dB,-8.99877997950138e+01°)
7.94328234724296e+04	(-5.44777885766407e+01dB,-8.99954499627470e+01°)
8.31763771102686e+04	(-5.45074978023010e+01dB,-9.00033716271157e+01°)
8.70963589956096e+04	(-5.44924387038778e+01dB,-9.00116515288580e+01°)
9.12010839355926e+04	(-5.44257624212517e+01dB,-9.00203995174879e+01°)
9.54992586021453e+04	(-5.42991231249850e+01dB,-9.00297581337298e+01°)
1.00000000000002e+05	(-5.41021920595097e+01dB,-9.00399173418332e+01°)
1.04712854805092e+05	(-5.38219474959264e+01dB,-9.00511379778005e+01°)
1.09647819614321e+05	(-5.34416010776399e+01dB,-9.00637906157238e+01°)
1.14815362149690e+05	(-5.29389069817207e+01dB,-9.00784231789326e+01°)
1.20226443461744e+05	(-5.22833650863401e+01dB,-9.00958856559064e+01°)
1.25892541179419e+05	(-5.14313054503954e+01dB,-9.01175775322560e+01°)
1.31825673855643e+05	(-5.03165566279550e+01dB,-9.01459866790886e+01°)
1.38038426460291e+05	(-4.88308289478622e+01dB,-9.01860185612166e+01°)
1.44543977074595e+05	(-4.67761586557007e+01dB,-9.02489066464782e+01°)
1.51356124843624e+05	(-4.37215655589295e+01dB,-9.03673538861593e+01°)
1.58489319246114e+05	(-3.83619237440670e+01dB,-9.06941101338234e+01°)
1.65958690743759e+05	(-1.69149623889556e+01dB,-9.82175085841560e+01°)
1.73780082874941e+05	(-3.72570963025744e+01dB,9.07680093971047e+01°)
1.81970085861002e+05	(-4.38115341631344e+01dB,9.03423152759281e+01°)
1.90546071796328e+05	(-4.75088184105491e+01dB,9.02044462873808e+01°)
1.99526231496892e+05	(-5.00219352629004e+01dB,9.01332269352032e+01°)
2.08929613085408e+05	(-5.18364897805402e+01dB,9.00874818757374e+01°)
2.18776162394960e+05	(-5.31493809613566e+01dB,9.00537332594794e+01°)
2.29086765276782e+05	(-5.40466962234131e+01dB,9.00260780740271e+01°)
2.39883291901954e+05	(-5.45568001963411e+01dB,9.00012612820463e+01°)
2.51188643150963e+05	(-5.46665930153372e+01dB,8.99769383489566e+01°)
2.63026799189543e+05	(-5.43196891701182e+01dB,8.99507055989060e+01°)
2.75422870333822e+05	(-5.33949951913835e+01dB,8.99189237215984e+01°)
2.88403150312666e+05	(-5.16406743529453e+01dB,8.98737220534150e+01°)
3.01995172040208e+05	(-4.84444292512392e+01dB,8.97901788219248e+01°)
3.16227766016844e+05	(-4.15097015978814e+01dB,8.95088803889647e+01°)
3.31131121482598e+05	(-3.31855914412520e+01dB,-8.87707552460080e+01°)
3.46736850452539e+05	(-4.66887967423822e+01dB,-8.97788788108830e+01°)
3.63078054770109e+05	(-5.14538173983261e+01dB,-8.99107058313856e+01°)
3.80189396320569e+05	(-5.39272505410573e+01dB,-8.99722717866236e+01°)
3.98107170553505e+05	(-5.49909111928260e+01dB,-9.00161831055099e+01°)
4.16869383470344e+05	(-5.47576402447557e+01dB,-9.00586239681319e+01°)
4.36515832240175e+05	(-5.28597085835473e+01dB,-9.01157974121984e+01°)
4.57088189614884e+05	(-4.76940052434301e+01dB,-9.02511319939326e+01°)
4.78630092322648e+05	(-2.55368143011742e+01dB,9.30670104643596e+01°)
