Freq.	V(n028)
Step Information: Run=1  (Step: 1/100)
1.00000000000000e+00	(-1.38222485900707e-01dB,-5.31664173404704e-01°)
1.04712854805090e+00	(-1.38259385989098e-01dB,-5.56719136758582e-01°)
1.09647819614319e+00	(-1.38299845770465e-01dB,-5.82954667547359e-01°)
1.14815362149688e+00	(-1.38344208604268e-01dB,-6.10426369149971e-01°)
1.20226443461741e+00	(-1.38392850962335e-01dB,-6.39192460261247e-01°)
1.25892541179417e+00	(-1.38446185619697e-01dB,-6.69313897378561e-01°)
1.31825673855641e+00	(-1.38504665154117e-01dB,-7.00854502947679e-01°)
1.38038426460289e+00	(-1.38568785781501e-01dB,-7.33881099416637e-01°)
1.44543977074593e+00	(-1.38639091560751e-01dB,-7.68463649460196e-01°)
1.51356124843621e+00	(-1.38716179003780e-01dB,-8.04675402637459e-01°)
1.58489319246111e+00	(-1.38800702128138e-01dB,-8.42593048764857e-01°)
1.65958690743756e+00	(-1.38893377995974e-01dB,-8.82296878291965e-01°)
1.73780082874938e+00	(-1.38994992786431e-01dB,-9.23870949972160e-01°)
1.81970085860999e+00	(-1.39106408449822e-01dB,-9.67403266139393e-01°)
1.90546071796325e+00	(-1.39228570002928e-01dB,-1.01298595590249e+00°)
1.99526231496888e+00	(-1.39362513524177e-01dB,-1.06071546657281e+00°)
2.08929613085404e+00	(-1.39509374916088e-01dB,-1.11069276367600e+00°)
2.18776162394956e+00	(-1.39670399509752e-01dB,-1.16302353985365e+00°)
2.29086765276778e+00	(-1.39846952588327e-01dB,-1.21781843303188e+00°)
2.39883291901949e+00	(-1.40040530922072e-01dB,-1.27519325417485e+00°)
2.51188643150958e+00	(-1.40252775405283e-01dB,-1.33526922499953e+00°)
2.63026799189539e+00	(-1.40485484905481e-01dB,-1.39817322598588e+00°)
2.75422870333817e+00	(-1.40740631435291e-01dB,-1.46403805504963e+00°)
2.88403150312661e+00	(-1.41020376775789e-01dB,-1.53300269722041e+00°)
3.01995172040202e+00	(-1.41327090686541e-01dB,-1.60521260566969e+00°)
3.16227766016839e+00	(-1.41663370851548e-01dB,-1.68081999442814e+00°)
3.31131121482592e+00	(-1.42032064727899e-01dB,-1.75998414311229e+00°)
3.46736850452532e+00	(-1.42436293471654e-01dB,-1.84287171396001e+00°)
3.63078054770102e+00	(-1.42879478138641e-01dB,-1.92965708146224e+00°)
3.80189396320562e+00	(-1.43365368371466e-01dB,-2.02052267483092e+00°)
3.98107170553498e+00	(-1.43898073803755e-01dB,-2.11565933352298e+00°)
4.16869383470336e+00	(-1.44482098435512e-01dB,-2.21526667597673e+00°)
4.36515832240167e+00	(-1.45122378252608e-01dB,-2.31955348166628e+00°)
4.57088189614876e+00	(-1.45824322389587e-01dB,-2.42873808651468e+00°)
4.78630092322640e+00	(-1.46593858160718e-01dB,-2.54304879161020e+00°)
5.01187233627274e+00	(-1.47437480311119e-01dB,-2.66272428508524e+00°)
5.24807460249774e+00	(-1.48362304869879e-01dB,-2.78801407688685e+00°)
5.49540873857626e+00	(-1.49376128021857e-01dB,-2.91917894603004e+00°)
5.75439937337159e+00	(-1.50487490442387e-01dB,-3.05649139977545e+00°)
6.02559586074359e+00	(-1.51705747583394e-01dB,-3.20023614396015e+00°)
6.30957344480195e+00	(-1.53041146430262e-01dB,-3.35071056350318e+00°)
6.60693448007598e+00	(-1.54504909295494e-01dB,-3.50822521184434e+00°)
6.91830970918939e+00	(-1.56109325250977e-01dB,-3.67310430777749e+00°)
7.24435960074992e+00	(-1.57867849851263e-01dB,-3.84568623778447e+00°)
7.58577575029186e+00	(-1.59795213838938e-01dB,-4.02632406159522e+00°)
7.94328234724284e+00	(-1.61907541576356e-01dB,-4.21538601822482e+00°)
8.31763771102674e+00	(-1.64222479987908e-01dB,-4.41325602922845e+00°)
8.70963589956084e+00	(-1.66759338849417e-01dB,-4.62033419531287e+00°)
9.12010839355913e+00	(-1.69539243303918e-01dB,-4.83703728176226e+00°)
9.54992586021439e+00	(-1.72585299528576e-01dB,-5.06379918736065e+00°)
1.00000000000000e+01	(-1.75922774514073e-01dB,-5.30107139063365e+00°)
1.04712854805090e+01	(-1.79579290956180e-01dB,-5.54932336622176e+00°)
1.09647819614319e+01	(-1.83585038287452e-01dB,-5.80904296310329e+00°)
1.14815362149689e+01	(-1.87973000888019e-01dB,-6.08073673513360e+00°)
1.20226443461742e+01	(-1.92779204527168e-01dB,-6.36493021297385e+00°)
1.25892541179417e+01	(-1.98042982071292e-01dB,-6.66216810493634e+00°)
1.31825673855641e+01	(-2.03807259459744e-01dB,-6.97301441255945e+00°)
1.38038426460289e+01	(-2.10118862895096e-01dB,-7.29805244483881e+00°)
1.44543977074593e+01	(-2.17028848098552e-01dB,-7.63788471297651e+00°)
1.51356124843621e+01	(-2.24592852358834e-01dB,-7.99313268526239e+00°)
1.58489319246112e+01	(-2.32871469915306e-01dB,-8.36443637928830e+00°)
1.65958690743757e+01	(-2.41930650995216e-01dB,-8.75245376610458e+00°)
1.73780082874938e+01	(-2.51842124519184e-01dB,-9.15785995819907e+00°)
1.81970085860999e+01	(-2.62683844114314e-01dB,-9.58134615034003e+00°)
1.90546071796326e+01	(-2.74540456616772e-01dB,-1.00236182793945e+01°)
1.99526231496889e+01	(-2.87503791666701e-01dB,-1.04853953663346e+01°)
2.08929613085405e+01	(-3.01673370326195e-01dB,-1.09674075007798e+01°)
2.18776162394956e+01	(-3.17156929836188e-01dB,-1.14703934257679e+01°)
2.29086765276778e+01	(-3.34070960665486e-01dB,-1.19950976781230e+01°)
2.39883291901950e+01	(-3.52541250905443e-01dB,-1.25422672379278e+01°)
2.51188643150959e+01	(-3.72703431778417e-01dB,-1.31126476394869e+01°)
2.63026799189540e+01	(-3.94703516583803e-01dB,-1.37069784959764e+01°)
2.75422870333818e+01	(-4.18698423787518e-01dB,-1.43259883910434e+01°)
2.88403150312662e+01	(-4.44856473170442e-01dB,-1.49703890932696e+01°)
3.01995172040203e+01	(-4.73357842021120e-01dB,-1.56408690540287e+01°)
3.16227766016840e+01	(-5.04394966301057e-01dB,-1.63380861562496e+01°)
3.31131121482593e+01	(-5.38172869583491e-01dB,-1.70626596913973e+01°)
3.46736850452534e+01	(-5.74909400425446e-01dB,-1.78151615550164e+01°)
3.63078054770103e+01	(-6.14835356769177e-01dB,-1.85961066678845e+01°)
3.80189396320563e+01	(-6.58194474089424e-01dB,-1.94059426505229e+01°)
3.98107170553500e+01	(-7.05243252445862e-01dB,-2.02450388037913e+01°)
4.16869383470338e+01	(-7.56250596520354e-01dB,-2.11136744776260e+01°)
4.36515832240169e+01	(-8.11497242317833e-01dB,-2.20120269435332e+01°)
4.57088189614878e+01	(-8.71274944669265e-01dB,-2.29401589238276e+01°)
4.78630092322641e+01	(-9.35885401229383e-01dB,-2.38980059710042e+01°)
5.01187233627275e+01	(-1.00563889151275e+00dB,-2.48853639328541e+01°)
5.24807460249776e+01	(-1.08085261384665e+00dB,-2.59018767813234e+01°)
5.49540873857628e+01	(-1.16184870909591e+00dB,-2.69470251234852e+01°)
5.75439937337161e+01	(-1.24895196771166e+00dB,-2.80201157487194e+01°)
6.02559586074362e+01	(-1.34248722604921e+00dB,-2.91202725942812e+01°)
6.30957344480197e+01	(-1.44277646887978e+00dB,-3.02464295285560e+01°)
6.60693448007600e+01	(-1.55013566728200e+00dB,-3.13973253541866e+01°)
6.91830970918941e+01	(-1.66487139422604e+00dB,-3.25715014187999e+01°)
7.24435960074995e+01	(-1.78727727355591e+00dB,-3.37673021867500e+01°)
7.58577575029189e+01	(-1.91763033099263e+00dB,-3.49828790695562e+01°)
7.94328234724287e+01	(-2.05618732737731e+00dB,-3.62161977352434e+01°)
8.31763771102677e+01	(-2.20318116375021e+00dB,-3.74650490188505e+01°)
8.70963589956087e+01	(-2.35881745412671e+00dB,-3.87270634410272e+01°)
9.12010839355916e+01	(-2.52327136421693e+00dB,-3.99997292136614e+01°)
9.54992586021443e+01	(-2.69668481224244e+00dB,-4.12804134773745e+01°)
1.00000000000001e+02	(-2.87916412113631e+00dB,-4.25663863830704e+01°)
1.04712854805091e+02	(-3.07077819978454e+00dB,-4.38548475069280e+01°)
1.09647819614319e+02	(-3.27155731498640e+00dB,-4.51429539834941e+01°)
1.14815362149689e+02	(-3.48149249623201e+00dB,-4.64278496622863e+01°)
1.20226443461742e+02	(-3.70053559329273e+00dB,-4.77066945453863e+01°)
1.25892541179418e+02	(-3.92859998329382e+00dB,-4.89766937504771e+01°)
1.31825673855642e+02	(-4.16556190080607e+00dB,-5.02351252666540e+01°)
1.38038426460290e+02	(-4.41126234294338e+00dB,-5.14793658274202e+01°)
1.44543977074594e+02	(-4.66550948274226e+00dB,-5.27069143123139e+01°)
1.51356124843622e+02	(-4.92808150922446e+00dB,-5.39154121992938e+01°)
1.58489319246113e+02	(-5.19872980216508e+00dB,-5.51026607166558e+01°)
1.65958690743757e+02	(-5.47718234401413e+00dB,-5.62666344774713e+01°)
1.73780082874939e+02	(-5.76314727057257e+00dB,-5.74054915131755e+01°)
1.81970085861000e+02	(-6.05631646552348e+00dB,-5.85175797485479e+01°)
1.90546071796326e+02	(-6.35636911111320e+00dB,-5.96014400719608e+01°)
1.99526231496890e+02	(-6.66297511735694e+00dB,-6.06558062479959e+01°)
2.08929613085406e+02	(-6.97579836420892e+00dB,-6.16796019918801e+01°)
2.18776162394957e+02	(-7.29449970430045e+00dB,-6.26719355757513e+01°)
2.29086765276779e+02	(-7.61873968728631e+00dB,-6.36320923662917e+01°)
2.39883291901951e+02	(-7.94818097985209e+00dB,-6.45595257035719e+01°)
2.51188643150960e+02	(-8.28249046747419e+00dB,-6.54538465247604e+01°)
2.63026799189540e+02	(-8.62134103469704e+00dB,-6.63148121168381e+01°)
2.75422870333819e+02	(-8.96441302977259e+00dB,-6.71423143529239e+01°)
2.88403150312663e+02	(-9.31139542689019e+00dB,-6.79363677305144e+01°)
3.01995172040204e+02	(-9.66198670494205e+00dB,-6.86970974897274e+01°)
3.16227766016841e+02	(-1.00158954659160e+01dB,-6.94247280480692e+01°)
3.31131121482594e+02	(-1.03728408187606e+01dB,-7.01195719472643e+01°)
3.46736850452535e+02	(-1.07325525561254e+01dB,-7.07820194688216e+01°)
3.63078054770105e+02	(-1.10947711519647e+01dB,-7.14125290393171e+01°)
3.80189396320565e+02	(-1.14592476078191e+01dB,-7.20116185144015e+01°)
3.98107170553501e+02	(-1.18257431748676e+01dB,-7.25798574026285e+01°)
4.16869383470339e+02	(-1.21940289777515e+01dB,-7.31178600662180e+01°)
4.36515832240170e+02	(-1.25638855648667e+01dB,-7.36262799156492e+01°)
4.57088189614879e+02	(-1.29351024084378e+01dB,-7.41058045980170e+01°)
4.78630092322643e+02	(-1.33074773763186e+01dB,-7.45571521649024e+01°)
5.01187233627277e+02	(-1.36808161961807e+01dB,-7.49810681934761e+01°)
5.24807460249778e+02	(-1.40549319316033e+01dB,-7.53783238240193e+01°)
5.49540873857630e+02	(-1.44296444885765e+01dB,-7.57497146674027e+01°)
5.75439937337163e+02	(-1.48047801700682e+01dB,-7.60960605266476e+01°)
6.02559586074364e+02	(-1.51801712955562e+01dB,-7.64182058669474e+01°)
6.30957344480200e+02	(-1.55556559017397e+01dB,-7.67170209579304e+01°)
6.60693448007603e+02	(-1.59310775399316e+01dB,-7.69934036000654e+01°)
6.91830970918944e+02	(-1.63062851848193e+01dB,-7.72482813336505e+01°)
7.24435960074998e+02	(-1.66811332682408e+01dB,-7.74826140136232e+01°)
7.58577575029192e+02	(-1.70554818502216e+01dB,-7.76973966165362e+01°)
7.94328234724290e+02	(-1.74291969376371e+01dB,-7.78936621277068e+01°)
8.31763771102680e+02	(-1.78021509583376e+01dB,-7.80724843373451e+01°)
8.70963589956090e+02	(-1.81742233952715e+01dB,-7.82349803552362e+01°)
9.12010839355920e+02	(-1.85453015809504e+01dB,-7.83823126355233e+01°)
9.54992586021446e+02	(-1.89152816474241e+01dB,-7.85156902878699e+01°)
1.00000000000001e+03	(-1.92840696207419e+01dB,-7.86363694406883e+01°)
1.04712854805091e+03	(-1.96515826417244e+01dB,-7.87456524183876e+01°)
1.09647819614320e+03	(-2.00177502868750e+01dB,-7.88448855001082e+01°)
1.14815362149690e+03	(-2.03825159546981e+01dB,-7.89354550445111e+01°)
1.20226443461743e+03	(-2.07458382739269e+01dB,-7.90187817960827e+01°)
1.25892541179418e+03	(-2.11076924817163e+01dB,-7.90963132347146e+01°)
1.31825673855642e+03	(-2.14680717123649e+01dB,-7.91695138928924e+01°)
1.38038426460290e+03	(-2.18269881313079e+01dB,-7.92398536433543e+01°)
1.44543977074594e+03	(-2.21844738457523e+01dB,-7.93087940528201e+01°)
1.51356124843623e+03	(-2.25405815231531e+01dB,-7.93777730009262e+01°)
1.58489319246113e+03	(-2.28953846523848e+01dB,-7.94481878727602e+01°)
1.65958690743758e+03	(-2.32489773904002e+01dB,-7.95213777416282e+01°)
1.73780082874940e+03	(-2.36014739495349e+01dB,-7.95986050580437e+01°)
1.81970085861001e+03	(-2.39530074971886e+01dB,-7.96810374428182e+01°)
1.90546071796327e+03	(-2.43037285597782e+01dB,-7.97697302382137e+01°)
1.99526231496890e+03	(-2.46538029455713e+01dB,-7.98656104940929e+01°)
2.08929613085406e+03	(-2.50034092248705e+01dB,-7.99694630506464e+01°)
2.18776162394958e+03	(-2.53527358293809e+01dB,-8.00819193232121e+01°)
2.29086765276780e+03	(-2.57019778536856e+01dB,-8.02034492990068e+01°)
2.39883291901952e+03	(-2.60513336588899e+01dB,-8.03343571249581e+01°)
2.51188643150961e+03	(-2.64010013902374e+01dB,-8.04747805083473e+01°)
2.63026799189541e+03	(-2.67511755258439e+01dB,-8.06246939784688e+01°)
2.75422870333820e+03	(-2.71020435721684e+01dB,-8.07839158804030e+01°)
2.88403150312664e+03	(-2.74537830135847e+01dB,-8.09521188041552e+01°)
3.01995172040205e+03	(-2.78065586091469e+01dB,-8.11288430056539e+01°)
3.16227766016842e+03	(-2.81605201105805e+01dB,-8.13135122601690e+01°)
3.31131121482595e+03	(-2.85158004532514e+01dB,-8.15054515101971e+01°)
3.46736850452536e+03	(-2.88725144481024e+01dB,-8.17039056318790e+01°)
3.63078054770106e+03	(-2.92307579790556e+01dB,-8.19080586459978e+01°)
3.80189396320566e+03	(-2.95906076887030e+01dB,-8.21170527378405e+01°)
3.98107170553503e+03	(-2.99521211164911e+01dB,-8.23300065183798e+01°)
4.16869383470341e+03	(-3.03153372389179e+01dB,-8.25460320494647e+01°)
4.36515832240172e+03	(-3.06802773509206e+01dB,-8.27642502594167e+01°)
4.57088189614881e+03	(-3.10469462216944e+01dB,-8.29838044842488e+01°)
4.78630092322645e+03	(-3.14153334563464e+01dB,-8.32038719762053e+01°)
5.01187233627279e+03	(-3.17854149965118e+01dB,-8.34236733194594e+01°)
5.24807460249780e+03	(-3.21571546976340e+01dB,-8.36424797782253e+01°)
5.49540873857632e+03	(-3.25305059272668e+01dB,-8.38596186725994e+01°)
5.75439937337165e+03	(-3.29054131367357e+01dB,-8.40744769310744e+01°)
6.02559586074366e+03	(-3.32818133670923e+01dB,-8.42865030060978e+01°)
6.30957344480202e+03	(-3.36596376589363e+01dB,-8.44952073615363e+01°)
6.60693448007605e+03	(-3.40388123438889e+01dB,-8.47001617503615e+01°)
6.91830970918946e+03	(-3.44192602029626e+01dB,-8.49009974996061e+01°)
7.24435960075000e+03	(-3.48009014835673e+01dB,-8.50974030100321e+01°)
7.58577575029195e+03	(-3.51836547723223e+01dB,-8.52891206623522e+01°)
7.94328234724293e+03	(-3.55674377251945e+01dB,-8.54759433023217e+01°)
8.31763771102683e+03	(-3.59521676597960e+01dB,-8.56577104553917e+01°)
8.70963589956093e+03	(-3.63377620170429e+01dB,-8.58343043993198e+01°)
9.12010839355923e+03	(-3.67241387009208e+01dB,-8.60056462013082e+01°)
9.54992586021450e+03	(-3.71112163059384e+01dB,-8.61716918056673e+01°)
1.00000000000001e+04	(-3.74989142421223e+01dB,-8.63324282392366e+01°)
1.04712854805092e+04	(-3.78871527672210e+01dB,-8.64878699851197e+01°)
1.09647819614320e+04	(-3.82758529352618e+01dB,-8.66380555608412e+01°)
1.14815362149690e+04	(-3.86649364698297e+01dB,-8.67830443248004e+01°)
1.20226443461743e+04	(-3.90543255694948e+01dB,-8.69229135247620e+01°)
1.25892541179419e+04	(-3.94439426517660e+01dB,-8.70577555939353e+01°)
1.31825673855643e+04	(-3.98337100408385e+01dB,-8.71876756937355e+01°)
1.38038426460291e+04	(-4.02235496032756e+01dB,-8.73127894973746e+01°)
1.44543977074595e+04	(-4.06133823346348e+01dB,-8.74332212047854e+01°)
1.51356124843623e+04	(-4.10031278989400e+01dB,-8.75491017768150e+01°)
1.58489319246114e+04	(-4.13927041218153e+01dB,-8.76605673749579e+01°)
1.65958690743759e+04	(-4.17820264370385e+01dB,-8.77677579919458e+01°)
1.73780082874940e+04	(-4.21710072852346e+01dB,-8.78708162581286e+01°)
1.81970085861001e+04	(-4.25595554624092e+01dB,-8.79698864086406e+01°)
1.90546071796328e+04	(-4.29475754150018e+01dB,-8.80651133967269e+01°)
1.99526231496891e+04	(-4.33349664771066e+01dB,-8.81566421392348e+01°)
2.08929613085407e+04	(-4.37216220444527e+01dB,-8.82446168810667e+01°)
2.18776162394959e+04	(-4.41074286786218e+01dB,-8.83291806662901e+01°)
2.29086765276781e+04	(-4.44922651338062e+01dB,-8.84104749045675e+01°)
2.39883291901953e+04	(-4.48760012971290e+01dB,-8.84886390225632e+01°)
2.51188643150962e+04	(-4.52584970321468e+01dB,-8.85638101909790e+01°)
2.63026799189542e+04	(-4.56396009135872e+01dB,-8.86361231188597e+01°)
2.75422870333821e+04	(-4.60191488396050e+01dB,-8.87057099077671e+01°)
2.88403150312665e+04	(-4.63969625058291e+01dB,-8.87726999593520e+01°)
3.01995172040207e+04	(-4.67728477231407e+01dB,-8.88372199307550e+01°)
3.16227766016843e+04	(-4.71465925584342e+01dB,-8.88993937331320e+01°)
3.31131121482597e+04	(-4.75179652744503e+01dB,-8.89593425694553e+01°)
3.46736850452537e+04	(-4.78867120410613e+01dB,-8.90171850085687e+01°)
3.63078054770107e+04	(-4.82525543859821e+01dB,-8.90730370933145e+01°)
3.80189396320568e+04	(-4.86151863476374e+01dB,-8.91270124814011e+01°)
3.98107170553504e+04	(-4.89742712866311e+01dB,-8.91792226185682e+01°)
4.16869383470342e+04	(-4.93294383046797e+01dB,-8.92297769445675e+01°)
4.36515832240173e+04	(-4.96802782106938e+01dB,-8.92787831335306e+01°)
4.57088189614883e+04	(-5.00263389624812e+01dB,-8.93263473715040e+01°)
4.78630092322647e+04	(-5.03671204988089e+01dB,-8.93725746753377e+01°)
5.01187233627281e+04	(-5.07020688595941e+01dB,-8.94175692588081e+01°)
5.24807460249782e+04	(-5.10305694709094e+01dB,-8.94614349539340e+01°)
5.49540873857634e+04	(-5.13519394451130e+01dB,-8.95042756980449e+01°)
5.75439937337167e+04	(-5.16654187131656e+01dB,-8.95461961004828e+01°)
6.02559586074368e+04	(-5.19701597639656e+01dB,-8.95873021071116e+01°)
6.30957344480204e+04	(-5.22652157114679e+01dB,-8.96277017864546e+01°)
6.60693448007608e+04	(-5.25495263405051e+01dB,-8.96675062687863e+01°)
6.91830970918949e+04	(-5.28219016911819e+01dB,-8.97068308796329e+01°)
7.24435960075003e+04	(-5.30810026218397e+01dB,-8.97457965229519e+01°)
7.58577575029197e+04	(-5.33253176310735e+01dB,-8.97845313883825e+01°)
7.94328234724296e+04	(-5.35531350045966e+01dB,-8.98231730837518e+01°)
8.31763771102686e+04	(-5.37625090602270e+01dB,-8.98618713321246e+01°)
8.70963589956096e+04	(-5.39512188603410e+01dB,-8.99007914276808e+01°)
9.12010839355926e+04	(-5.41167171952861e+01dB,-8.99401187253935e+01°)
9.54992586021453e+04	(-5.42560668359410e+01dB,-8.99800645599717e+01°)
1.00000000000002e+05	(-5.43658598876387e+01dB,-9.00208741729595e+01°)
1.04712854805092e+05	(-5.44421143572096e+01dB,-9.00628375120931e+01°)
1.09647819614321e+05	(-5.44801394526161e+01dB,-9.01063042209896e+01°)
1.14815362149690e+05	(-5.44743571369361e+01dB,-9.01517048788742e+01°)
1.20226443461744e+05	(-5.44180611311452e+01dB,-9.01995817974325e+01°)
1.25892541179419e+05	(-5.43030842485710e+01dB,-9.02506348499668e+01°)
1.31825673855643e+05	(-5.41193275720638e+01dB,-9.03057917199649e+01°)
1.38038426460291e+05	(-5.38540745839341e+01dB,-9.03663193242761e+01°)
1.44543977074595e+05	(-5.34909577581705e+01dB,-9.04340077540789e+01°)
1.51356124843624e+05	(-5.30083380306090e+01dB,-9.05114887088756e+01°)
1.58489319246114e+05	(-5.23766381274461e+01dB,-9.06028194159543e+01°)
1.65958690743759e+05	(-5.15536859274599e+01dB,-9.07146325306721e+01°)
1.73780082874941e+05	(-5.04759471461316e+01dB,-9.08586164504584e+01°)
1.81970085861002e+05	(-4.90402992145929e+01dB,-9.10575530470087e+01°)
1.90546071796328e+05	(-4.70605508921639e+01dB,-9.13627400234925e+01°)
1.99526231496892e+05	(-4.41397479863253e+01dB,-9.19193266926241e+01°)
2.08929613085408e+05	(-3.91288177076726e+01dB,-9.33631928878665e+01°)
2.18776162394960e+05	(-2.35255868082427e+01dB,-1.09790202361979e+02°)
2.29086765276782e+05	(-3.64664712098009e+01dB,9.40487397203332e+01°)
2.39883291901954e+05	(-4.35044957634222e+01dB,9.15896576913761e+01°)
2.51188643150963e+05	(-4.73618548146086e+01dB,9.08418880193706e+01°)
2.63026799189543e+05	(-4.99600287768164e+01dB,9.04603788153275e+01°)
2.75422870333822e+05	(-5.18291398423413e+01dB,9.02146211597216e+01°)
2.88403150312666e+05	(-5.31792624746818e+01dB,9.00315797915697e+01°)
3.01995172040208e+05	(-5.41004330329930e+01dB,8.98798356233080e+01°)
3.16227766016844e+05	(-5.46205840994935e+01dB,8.97422213175235e+01°)
3.31131121482598e+05	(-5.47225017836766e+01dB,8.96063383938158e+01°)
3.46736850452539e+05	(-5.43403488868397e+01dB,8.94592018824984e+01°)
3.63078054770109e+05	(-5.33324476130692e+01dB,8.92803319110182e+01°)
3.80189396320569e+05	(-5.13955546311998e+01dB,8.90226448123720e+01°)
3.98107170553505e+05	(-4.77421435317631e+01dB,8.85202743506910e+01°)
4.16869383470344e+05	(-3.87605122409995e+01dB,8.62954843943214e+01°)
4.36515832240175e+05	(-3.91027915947455e+01dB,-8.73399402828544e+01°)
4.57088189614884e+05	(-4.86127779279835e+01dB,-8.95592484248767e+01°)
4.78630092322648e+05	(-5.26488118291859e+01dB,-9.00771019322104e+01°)
