Freq.	V(n028)
Step Information: Run=1  (Step: 1/100)
1.00000000000000e+00	(-1.37929664093779e-01dB,-5.08190734350753e-01Ḟ)
1.04712854805090e+00	(-1.37967683042560e-01dB,-5.32139232166041e-01Ḟ)
1.09647819614319e+00	(-1.38009369555145e-01dB,-5.57216122204568e-01Ḟ)
1.14815362149688e+00	(-1.38055077383409e-01dB,-5.83474544593844e-01Ḟ)
1.20226443461741e+00	(-1.38105194391004e-01dB,-6.10970138048799e-01Ḟ)
1.25892541179417e+00	(-1.38160145839953e-01dB,-6.39761156766874e-01Ḟ)
1.31825673855641e+00	(-1.38220397995326e-01dB,-6.69908592692387e-01Ḟ)
1.38038426460289e+00	(-1.38286462075646e-01dB,-7.01476303413762e-01Ḟ)
1.44543977074593e+00	(-1.38358898583940e-01dB,-7.34531145905876e-01Ḟ)
1.51356124843621e+00	(-1.38438322054149e-01dB,-7.69143116389485e-01Ḟ)
1.58489319246111e+00	(-1.38525406256157e-01dB,-8.05385496558045e-01Ḟ)
1.65958690743756e+00	(-1.38620889899125e-01dB,-8.43335006439540e-01Ḟ)
1.73780082874938e+00	(-1.38725582883562e-01dB,-8.83071964175816e-01Ḟ)
1.81970085860999e+00	(-1.38840373154556e-01dB,-9.24680452989043e-01Ḟ)
1.90546071796325e+00	(-1.38966234212110e-01dB,-9.68248495638518e-01Ḟ)
1.99526231496888e+00	(-1.39104233342729e-01dB,-1.01386823665462e+00Ḟ)
2.08929613085404e+00	(-1.39255540640320e-01dB,-1.06163613265201e+00Ḟ)
2.18776162394956e+00	(-1.39421438892481e-01dB,-1.11165315103520e+00Ḟ)
2.29086765276778e+00	(-1.39603334413106e-01dB,-1.16402497739882e+00Ḟ)
2.39883291901949e+00	(-1.39802768912654e-01dB,-1.21886223193134e+00Ḟ)
2.51188643150958e+00	(-1.40021432504362e-01dB,-1.27628069514823e+00Ḟ)
2.63026799189539e+00	(-1.40261177953170e-01dB,-1.33640154324415e+00Ḟ)
2.75422870333817e+00	(-1.40524036285514e-01dB,-1.39935159338778e+00Ḟ)
2.88403150312661e+00	(-1.40812233889314e-01dB,-1.46526355924594e+00Ḟ)
3.01995172040202e+00	(-1.41128211242983e-01dB,-1.53427631702853e+00Ḟ)
3.16227766016839e+00	(-1.41474643427986e-01dB,-1.60653518232211e+00Ḟ)
3.31131121482592e+00	(-1.41854462590721e-01dB,-1.68219219797310e+00Ḟ)
3.46736850452532e+00	(-1.42270882538094e-01dB,-1.76140643323702e+00Ḟ)
3.63078054770102e+00	(-1.42727425663667e-01dB,-1.84434429439390e+00Ḟ)
3.80189396320562e+00	(-1.43227952422218e-01dB,-1.93117984698377e+00Ḟ)
3.98107170553498e+00	(-1.43776693587031e-01dB,-2.02209514976755e+00Ḟ)
4.16869383470336e+00	(-1.44378285548732e-01dB,-2.11728060046405e+00Ḟ)
4.36515832240167e+00	(-1.45037808932140e-01dB,-2.21693529322950e+00Ḟ)
4.57088189614876e+00	(-1.45760830836202e-01dB,-2.32126738778691e+00Ḟ)
4.78630092322640e+00	(-1.46553451022867e-01dB,-2.43049448998237e+00Ḟ)
5.01187233627274e+00	(-1.47422352414488e-01dB,-2.54484404345137e+00Ḟ)
5.24807460249774e+00	(-1.48374856283035e-01dB,-2.66455373192413e+00Ḟ)
5.49540873857626e+00	(-1.49418982548358e-01dB,-2.78987189154449e+00Ḟ)
5.75439937337159e+00	(-1.50563515636468e-01dB,-2.92105793238483e+00Ḟ)
6.02559586074359e+00	(-1.51818076380936e-01dB,-3.05838276811791e+00Ḟ)
6.30957344480195e+00	(-1.53193200491846e-01dB,-3.20212925255025e+00Ḟ)
6.60693448007598e+00	(-1.54700424148568e-01dB,-3.35259262143117e+00Ḟ)
6.91830970918939e+00	(-1.56352377317501e-01dB,-3.51008093760860e+00Ḟ)
7.24435960074992e+00	(-1.58162885434932e-01dB,-3.67491553720768e+00Ḟ)
7.58577575029186e+00	(-1.60147080133998e-01dB,-3.84743147406893e+00Ḟ)
7.94328234724284e+00	(-1.62321519739246e-01dB,-4.02797795916412e+00Ḟ)
8.31763771102674e+00	(-1.64704320289550e-01dB,-4.21691879112331e+00Ḟ)
8.70963589956084e+00	(-1.67315297892227e-01dB,-4.41463277334744e+00Ḟ)
9.12010839355913e+00	(-1.70176123242558e-01dB,-4.62151411242493e+00Ḟ)
9.54992586021439e+00	(-1.73310489179122e-01dB,-4.83797279171569e+00Ḟ)
1.00000000000000e+01	(-1.76744292170464e-01dB,-5.06443491301116e+00Ḟ)
1.04712854805090e+01	(-1.80505828639594e-01dB,-5.30134299810169e+00Ḟ)
1.09647819614319e+01	(-1.84626007050779e-01dB,-5.54915624086993e+00Ḟ)
1.14815362149689e+01	(-1.89138576665885e-01dB,-5.80835069919047e+00Ḟ)
1.20226443461742e+01	(-1.94080373856824e-01dB,-6.07941941442250e+00Ḟ)
1.25892541179417e+01	(-1.99491586815826e-01dB,-6.36287244463258e+00Ḟ)
1.31825673855641e+01	(-2.05416039426020e-01dB,-6.65923679588160e+00Ḟ)
1.38038426460289e+01	(-2.11901494952007e-01dB,-6.96905623393365e+00Ḟ)
1.44543977074593e+01	(-2.18999980060785e-01dB,-7.29289095661411e+00Ḟ)
1.51356124843621e+01	(-2.26768129488099e-01dB,-7.63131710475008e+00Ḟ)
1.58489319246112e+01	(-2.35267551413728e-01dB,-7.98492608719578e+00Ḟ)
1.65958690743757e+01	(-2.44565213288615e-01dB,-8.35432369289595e+00Ḟ)
1.73780082874938e+01	(-2.54733847460671e-01dB,-8.74012896030286e+00Ḟ)
1.81970085860999e+01	(-2.65852375458147e-01dB,-9.14297277179679e+00Ḟ)
1.90546071796326e+01	(-2.78006349198974e-01dB,-9.56349613812657e+00Ḟ)
1.99526231496889e+01	(-2.91288406692327e-01dB,-1.00023481353757e+01Ḟ)
2.08929613085405e+01	(-3.05798738956376e-01dB,-1.04601834546985e+01Ḟ)
2.18776162394956e+01	(-3.21645563909969e-01dB,-1.09376595231803e+01Ḟ)
2.29086765276778e+01	(-3.38945601858423e-01dB,-1.14354331528668e+01Ḟ)
2.39883291901950e+01	(-3.57824545911507e-01dB,-1.19541566744723e+01Ḟ)
2.51188643150959e+01	(-3.78417519211564e-01dB,-1.24944735127914e+01Ḟ)
2.63026799189540e+01	(-4.00869509235427e-01dB,-1.30570131626960e+01Ḟ)
2.75422870333818e+01	(-4.25335767659029e-01dB,-1.36423855281504e+01Ḟ)
2.88403150312662e+01	(-4.51982162373134e-01dB,-1.42511745922950e+01Ḟ)
3.01995172040203e+01	(-4.80985466224706e-01dB,-1.48839313947763e+01Ḟ)
3.16227766016840e+01	(-5.12533565012776e-01dB,-1.55411663035271e+01Ḟ)
3.31131121482593e+01	(-5.46825565227031e-01dB,-1.62233405826069e+01Ḟ)
3.46736850452534e+01	(-5.84071780094250e-01dB,-1.69308572758696e+01Ḟ)
3.63078054770103e+01	(-6.24493570812678e-01dB,-1.76640514484721e+01Ḟ)
3.80189396320563e+01	(-6.68323018528991e-01dB,-1.84231798548163e+01Ḟ)
3.98107170553500e+01	(-7.15802401845961e-01dB,-1.92084101324465e+01Ḟ)
4.16869383470338e+01	(-7.67183454613431e-01dB,-2.00198096565381e+01Ḟ)
4.36515832240169e+01	(-8.22726379673901e-01dB,-2.08573342283991e+01Ḟ)
4.57088189614878e+01	(-8.82698596320791e-01dB,-2.17208168130064e+01Ḟ)
4.78630092322641e+01	(-9.47373202714619e-01dB,-2.26099565836447e+01Ḟ)
5.01187233627275e+01	(-1.01702713955013e+00dB,-2.35243085744776e+01Ḟ)
5.24807460249776e+01	(-1.09193904807366e+00dB,-2.44632742819119e+01Ḟ)
5.49540873857628e+01	(-1.17238682413151e+00dB,-2.54260935902612e+01Ḟ)
5.75439937337161e+01	(-1.25864488031666e+00dB,-2.64118384231152e+01Ḟ)
6.02559586074362e+01	(-1.35098114028293e+00dB,-2.74194085356283e+01Ḟ)
6.30957344480197e+01	(-1.44965380263170e+00dB,-2.84475298610691e+01Ḟ)
6.60693448007600e+01	(-1.55490792596750e+00dB,-2.94947558042245e+01Ḟ)
6.91830970918941e+01	(-1.66697190114423e+00dB,-3.05594718318996e+01Ḟ)
7.24435960074995e+01	(-1.78605389058507e+00dB,-3.16399036451499e+01Ḟ)
7.58577575029189e+01	(-1.91233832696308e+00dB,-3.27341291285939e+01Ḟ)
7.94328234724287e+01	(-2.04598257351975e+00dB,-3.38400941604140e+01Ḟ)
8.31763771102677e+01	(-2.18711385490725e+00dB,-3.49556322355425e+01Ḟ)
8.70963589956087e+01	(-2.33582656983586e+00dB,-3.60784877088789e+01Ḟ)
9.12010839355916e+01	(-2.49218009430434e+00dB,-3.72063423118234e+01Ḟ)
9.54992586021443e+01	(-2.65619717640267e+00dB,-3.83368444417912e+01Ḟ)
1.00000000000001e+02	(-2.82786301051988e+00dB,-3.94676405794299e+01Ḟ)
1.04712854805091e+02	(-3.00712506056759e+00dB,-4.05964080607231e+01Ḟ)
1.09647819614319e+02	(-3.19389367918188e+00dB,-4.17208883292461e+01Ḟ)
1.14815362149689e+02	(-3.38804354376988e+00dB,-4.28389197243422e+01Ḟ)
1.20226443461742e+02	(-3.58941590192766e+00dB,-4.39484688288817e+01Ḟ)
1.25892541179418e+02	(-3.79782158953370e+00dB,-4.50476594082642e+01Ḟ)
1.31825673855642e+02	(-4.01304475611573e+00dB,-4.61347980207558e+01Ḟ)
1.38038426460290e+02	(-4.23484720522480e+00dB,-4.72083954662774e+01Ḟ)
1.44543977074594e+02	(-4.46297323371944e+00dB,-4.82671833625960e+01Ḟ)
1.51356124843622e+02	(-4.69715483405079e+00dB,-4.93101252893425e+01Ḟ)
1.58489319246113e+02	(-4.93711710860868e+00dB,-5.03364221152539e+01Ḟ)
1.65958690743757e+02	(-5.18258373548176e+00dB,-5.13455113159143e+01Ḟ)
1.73780082874939e+02	(-5.43328232096330e+00dB,-5.23370602911795e+01Ḟ)
1.81970085861000e+02	(-5.68894947597804e+00dB,-5.33109538965934e+01Ḟ)
1.90546071796326e+02	(-5.94933546136770e+00dB,-5.42672766044836e+01Ḟ)
1.99526231496890e+02	(-6.21420826056852e+00dB,-5.52062899010805e+01Ḟ)
2.08929613085406e+02	(-6.48335695739875e+00dB,-5.61284056986891e+01Ḟ)
2.18776162394957e+02	(-6.75659432102004e+00dB,-5.70341566893496e+01Ḟ)
2.29086765276779e+02	(-7.03375852898110e+00dB,-5.79241646811296e+01Ḟ)
2.39883291901951e+02	(-7.31471399163598e+00dB,-5.87991080333404e+01Ḟ)
2.51188643150960e+02	(-7.59935127590856e+00dB,-5.96596893366015e+01Ḟ)
2.63026799189540e+02	(-7.88758616179562e+00dB,-6.05066044636510e+01Ḟ)
2.75422870333819e+02	(-8.17935789938899e+00dB,-6.13405140454465e+01Ḟ)
2.88403150312663e+02	(-8.47462676565249e+00dB,-6.21620183059234e+01Ḟ)
3.01995172040204e+02	(-8.77337104684263e+00dB,-6.29716360227731e+01Ḟ)
3.16227766016841e+02	(-9.07558359265010e+00dB,-6.37697881793378e+01Ḟ)
3.31131121482594e+02	(-9.38126810058526e+00dB,-6.45567866457973e+01Ḟ)
3.46736850452535e+02	(-9.69043529307971e+00dB,-6.53328279901450e+01Ḟ)
3.63078054770105e+02	(-1.00030991451206e+01dB,-6.60979922858690e+01Ḟ)
3.80189396320565e+02	(-1.03192733074957e+01dB,-6.68522465683953e+01Ḟ)
3.98107170553501e+02	(-1.06389678510756e+01dB,-6.75954524089656e+01Ḟ)
4.16869383470339e+02	(-1.09621864326091e+01dB,-6.83273769327343e+01Ḟ)
4.36515832240170e+02	(-1.12889239542477e+01dB,-6.90477065136254e+01Ḟ)
4.57088189614879e+02	(-1.16191647595003e+01dB,-6.97560623340492e+01Ḟ)
4.78630092322643e+02	(-1.19528813795731e+01dB,-7.04520170010269e+01Ḟ)
5.01187233627277e+02	(-1.22900338178050e+01dB,-7.11351114562735e+01Ḟ)
5.24807460249778e+02	(-1.26305693375297e+01dB,-7.18048714983826e+01Ḟ)
5.49540873857630e+02	(-1.29744227010816e+01dB,-7.24608233408755e+01Ḟ)
5.75439937337163e+02	(-1.33215167952256e+01dB,-7.31025077504682e+01Ḟ)
6.02559586074364e+02	(-1.36717635710227e+01dB,-7.37294924358002e+01Ḟ)
6.30957344480200e+02	(-1.40250652236332e+01dB,-7.43413824796241e+01Ḟ)
6.60693448007603e+02	(-1.43813155391634e+01dB,-7.49378287202854e+01Ḟ)
6.91830970918944e+02	(-1.47404013405397e+01dB,-7.55185340864064e+01Ḟ)
7.24435960074998e+02	(-1.51022039716599e+01dB,-7.60832579691446e+01Ḟ)
7.58577575029192e+02	(-1.54666007678462e+01dB,-7.66318187780892e+01Ḟ)
7.94328234724290e+02	(-1.58334664701291e+01dB,-7.71640948701793e+01Ḟ)
8.31763771102680e+02	(-1.62026745504432e+01dB,-7.76800240674086e+01Ḟ)
8.70963589956090e+02	(-1.65740984239206e+01dB,-7.81796019907650e+01Ḟ)
9.12010839355920e+02	(-1.69476125327292e+01dB,-7.86628794374315e+01Ḟ)
9.54992586021446e+02	(-1.73230932931125e+01dB,-7.91299590184735e+01Ḟ)
1.00000000000001e+03	(-1.77004199033125e+01dB,-7.95809912576812e+01Ḟ)
1.04712854805091e+03	(-1.80794750148917e+01dB,-8.00161703312800e+01Ḟ)
1.09647819614320e+03	(-1.84601452736694e+01dB,-8.04357296048747e+01Ḟ)
1.14815362149690e+03	(-1.88423217391381e+01dB,-8.08399370998999e+01Ḟ)
1.20226443461743e+03	(-1.92259001929819e+01dB,-8.12290909982500e+01Ḟ)
1.25892541179418e+03	(-1.96107813483075e+01dB,-8.16035152715508e+01Ḟ)
1.31825673855642e+03	(-1.99968709715701e+01dB,-8.19635555013233e+01Ḟ)
1.38038426460290e+03	(-2.03840799290674e+01dB,-8.23095749383803e+01Ḟ)
1.44543977074594e+03	(-2.07723241694112e+01dB,-8.26419508343627e+01Ḟ)
1.51356124843623e+03	(-2.11615246526650e+01dB,-8.29610710653150e+01Ḟ)
1.58489319246113e+03	(-2.15516072359617e+01dB,-8.32673310565205e+01Ḟ)
1.65958690743758e+03	(-2.19425025244392e+01dB,-8.35611310092610e+01Ḟ)
1.73780082874940e+03	(-2.23341456953365e+01dB,-8.38428734235168e+01Ḟ)
1.81970085861001e+03	(-2.27264763020914e+01dB,-8.41129609056178e+01Ḟ)
1.90546071796327e+03	(-2.31194380643306e+01dB,-8.43717942462668e+01Ḟ)
1.99526231496890e+03	(-2.35129786487475e+01dB,-8.46197707519344e+01Ḟ)
2.08929613085406e+03	(-2.39070494450383e+01dB,-8.48572828111647e+01Ḟ)
2.18776162394958e+03	(-2.43016053403289e+01dB,-8.50847166766309e+01Ḟ)
2.29086765276780e+03	(-2.46966044948597e+01dB,-8.53024514436816e+01Ḟ)
2.39883291901952e+03	(-2.50920081211155e+01dB,-8.55108582064720e+01Ḟ)
2.51188643150961e+03	(-2.54877802680848e+01dB,-8.57102993734614e+01Ḟ)
2.63026799189541e+03	(-2.58838876118939e+01dB,-8.59011281249743e+01Ḟ)
2.75422870333820e+03	(-2.62802992536957e+01dB,-8.60836879966023e+01Ḟ)
2.88403150312664e+03	(-2.66769865253778e+01dB,-8.62583125733814e+01Ḟ)
3.01995172040205e+03	(-2.70739228033956e+01dB,-8.64253252808864e+01Ḟ)
3.16227766016842e+03	(-2.74710833308204e+01dB,-8.65850392605839e+01Ḟ)
3.31131121482595e+03	(-2.78684450475142e+01dB,-8.67377573179695e+01Ḟ)
3.46736850452536e+03	(-2.82659864281983e+01dB,-8.68837719331410e+01Ḟ)
3.63078054770106e+03	(-2.86636873280692e+01dB,-8.70233653245357e+01Ḟ)
3.80189396320566e+03	(-2.90615288355184e+01dB,-8.71568095575601e+01Ḟ)
3.98107170553503e+03	(-2.94594931314404e+01dB,-8.72843666907702e+01Ḟ)
4.16869383470341e+03	(-2.98575633545541e+01dB,-8.74062889531179e+01Ḟ)
4.36515832240172e+03	(-3.02557234721171e+01dB,-8.75228189465540e+01Ḟ)
4.57088189614881e+03	(-3.06539581553714e+01dB,-8.76341898689895e+01Ḟ)
4.78630092322645e+03	(-3.10522526590342e+01dB,-8.77406257532539e+01Ḟ)
5.01187233627279e+03	(-3.14505927041168e+01dB,-8.78423417182613e+01Ḟ)
5.24807460249780e+03	(-3.18489643633355e+01dB,-8.79395442291076e+01Ḟ)
5.49540873857632e+03	(-3.22473539483557e+01dB,-8.80324313632788e+01Ḟ)
5.75439937337165e+03	(-3.26457478980892e+01dB,-8.81211930805539e+01Ḟ)
6.02559586074366e+03	(-3.30441326672452e+01dB,-8.82060114945432e+01Ḟ)
6.30957344480202e+03	(-3.34424946143057e+01dB,-8.82870611441204e+01Ḟ)
6.60693448007605e+03	(-3.38408198880749e+01dB,-8.83645092632797e+01Ḟ)
6.91830970918946e+03	(-3.42390943119131e+01dB,-8.84385160481956e+01Ḟ)
7.24435960075000e+03	(-3.46373032647356e+01dB,-8.85092349204732e+01Ḟ)
7.58577575029195e+03	(-3.50354315578069e+01dB,-8.85768127857614e+01Ḟ)
7.94328234724293e+03	(-3.54334633063166e+01dB,-8.86413902870623e+01Ḟ)
8.31763771102683e+03	(-3.58313817946623e+01dB,-8.87031020522094e+01Ḟ)
8.70963589956093e+03	(-3.62291693342986e+01dB,-8.87620769351066e+01Ḟ)
9.12010839355923e+03	(-3.66268071129369e+01dB,-8.88184382504230e+01Ḟ)
9.54992586021450e+03	(-3.70242750337934e+01dB,-8.88723040015290e+01Ḟ)
1.00000000000001e+04	(-3.74215515434822e+01dB,-8.89237871015342e+01Ḟ)
1.04712854805092e+04	(-3.78186134470425e+01dB,-8.89729955873513e+01Ḟ)
1.09647819614320e+04	(-3.82154357084589e+01dB,-8.90200328267679e+01Ḟ)
1.14815362149690e+04	(-3.86119912348921e+01dB,-8.90649977185522e+01Ḟ)
1.20226443461743e+04	(-3.90082506426768e+01dB,-8.91079848856611e+01Ḟ)
1.25892541179419e+04	(-3.94041820029613e+01dB,-8.91490848616477e+01Ḟ)
1.31825673855643e+04	(-3.97997505646584e+01dB,-8.91883842703996e+01Ḟ)
1.38038426460291e+04	(-4.01949184521478e+01dB,-8.92259659993552e+01Ḟ)
1.44543977074595e+04	(-4.05896443349097e+01dB,-8.92619093663720e+01Ḟ)
1.51356124843623e+04	(-4.09838830659765e+01dB,-8.92962902804314e+01Ḟ)
1.58489319246114e+04	(-4.13775852857611e+01dB,-8.93291813963807e+01Ḟ)
1.65958690743759e+04	(-4.17706969874453e+01dB,-8.93606522639265e+01Ḟ)
1.73780082874940e+04	(-4.21631590396914e+01dB,-8.93907694710987e+01Ḟ)
1.81970085861001e+04	(-4.25549066619629e+01dB,-8.94195967824192e+01Ḟ)
1.90546071796328e+04	(-4.29458688471976e+01dB,-8.94471952720134e+01Ḟ)
1.99526231496891e+04	(-4.33359677259602e+01dB,-8.94736234519129e+01Ḟ)
2.08929613085407e+04	(-4.37251178655004e+01dB,-8.94989373958047e+01Ḟ)
2.18776162394959e+04	(-4.41132254963387e+01dB,-8.95231908584947e+01Ḟ)
2.29086765276781e+04	(-4.45001876580855e+01dB,-8.95464353913570e+01Ḟ)
2.39883291901953e+04	(-4.48858912551402e+01dB,-8.95687204540610e+01Ḟ)
2.51188643150962e+04	(-4.52702120117048e+01dB,-8.95900935228742e+01Ḟ)
2.63026799189542e+04	(-4.56530133141381e+01dB,-8.96106001958631e+01Ḟ)
2.75422870333821e+04	(-4.60341449270466e+01dB,-8.96302842953302e+01Ḟ)
2.88403150312665e+04	(-4.64134415676122e+01dB,-8.96491879678550e+01Ḟ)
3.01995172040207e+04	(-4.67907213204380e+01dB,-8.96673517823377e+01Ḟ)
3.16227766016843e+04	(-4.71657838725941e+01dB,-8.96848148264831e+01Ḟ)
3.31131121482597e+04	(-4.75384085454835e+01dB,-8.97016148022141e+01Ḟ)
3.46736850452537e+04	(-4.79083520965257e+01dB,-8.97177881205636e+01Ḟ)
3.63078054770107e+04	(-4.82753462593513e+01dB,-8.97333699966694e+01Ḟ)
3.80189396320568e+04	(-4.86390949860663e+01dB,-8.97483945455939e+01Ḟ)
3.98107170553504e+04	(-4.89992713489816e+01dB,-8.97628948798065e+01Ḟ)
4.16869383470342e+04	(-4.93555140517739e+01dB,-8.97769032093192e+01Ḟ)
4.36515832240173e+04	(-4.97074234910393e+01dB,-8.97904509456483e+01Ḟ)
4.57088189614883e+04	(-5.00545572982257e+01dB,-8.98035688110205e+01Ḟ)
4.78630092322647e+04	(-5.03964252784648e+01dB,-8.98162869545361e+01Ḟ)
5.01187233627281e+04	(-5.07324836462276e+01dB,-8.98286350773971e+01Ḟ)
5.24807460249782e+04	(-5.10621284370971e+01dB,-8.98406425698012e+01Ḟ)
5.49540873857634e+04	(-5.13846879491807e+01dB,-8.98523386627532e+01Ḟ)
5.75439937337167e+04	(-5.16994140352078e+01dB,-8.98637525988899e+01Ḟ)
6.02559586074368e+04	(-5.20054720251656e+01dB,-8.98749138275283e+01Ḟ)
6.30957344480204e+04	(-5.23019290066082e+01dB,-8.98858522306266e+01Ḟ)
6.60693448007608e+04	(-5.25877401217595e+01dB,-8.98965983883320e+01Ḟ)
6.91830970918949e+04	(-5.28617324519461e+01dB,-8.99071838954754e+01Ḟ)
7.24435960075003e+04	(-5.31225859433888e+01dB,-8.99176417440533e+01Ḟ)
7.58577575029197e+04	(-5.33688106735314e+01dB,-8.99280067918285e+01Ḟ)
7.94328234724296e+04	(-5.35987195489252e+01dB,-8.99383163443275e+01Ḟ)
8.31763771102686e+04	(-5.38103952424226e+01dB,-8.99486108876632e+01Ḟ)
8.70963589956096e+04	(-5.40016497868563e+01dB,-8.99589350242506e+01Ḟ)
9.12010839355926e+04	(-5.41699746960505e+01dB,-8.99693386849413e+01Ḟ)
9.54992586021453e+04	(-5.43124787078043e+01dB,-8.99798787230784e+01Ḟ)
1.00000000000002e+05	(-5.44258091216894e+01dB,-8.99906210445774e+01Ḟ)
1.04712854805092e+05	(-5.45060510525637e+01dB,-9.00016435035324e+01Ḟ)
1.09647819614321e+05	(-5.45485964371809e+01dB,-9.00130399125671e+01Ḟ)
1.14815362149690e+05	(-5.45479708107724e+01dB,-9.00249257121897e+01Ḟ)
1.20226443461744e+05	(-5.44975998403710e+01dB,-9.00374461704252e+01Ḟ)
1.25892541179419e+05	(-5.43894878051142e+01dB,-9.00507885503851e+01Ḟ)
1.31825673855643e+05	(-5.42137637682158e+01dB,-9.00652007012313e+01Ḟ)
1.38038426460291e+05	(-5.39580225227587e+01dB,-9.00810204360599e+01Ḟ)
1.44543977074595e+05	(-5.36063352210555e+01dB,-9.00987238173828e+01Ḟ)
1.51356124843624e+05	(-5.31377046685475e+01dB,-9.01190083092551e+01Ḟ)
1.58489319246114e+05	(-5.25235368827688e+01dB,-9.01429442781347e+01Ḟ)
1.65958690743759e+05	(-5.17232548776786e+01dB,-9.01722709466374e+01Ḟ)
1.73780082874941e+05	(-5.06761100299441e+01dB,-9.02100281377330e+01Ḟ)
1.81970085861002e+05	(-4.92843502500445e+01dB,-9.02620725453277e+01Ḟ)
1.90546071796328e+05	(-4.73737050915549e+01dB,-9.03413645893500e+01Ḟ)
1.99526231496892e+05	(-4.45802202570645e+01dB,-9.04835224661171e+01Ḟ)
2.08929613085408e+05	(-3.98929947625678e+01dB,-9.08351404042099e+01Ḟ)
2.18776162394960e+05	(-2.70325290470611e+01dB,-9.36158005324101e+01Ḟ)
2.29086765276782e+05	(-3.53395321929151e+01dB,9.13304085610604e+01Ḟ)
2.39883291901954e+05	(-4.30636319788103e+01dB,9.05062112267093e+01Ḟ)
2.51188643150963e+05	(-4.71163086597918e+01dB,9.02808861202612e+01Ḟ)
2.63026799189543e+05	(-4.98125043601311e+01dB,9.01705784333798e+01Ḟ)
2.75422870333822e+05	(-5.17451439879396e+01dB,9.01014626733787e+01Ḟ)
2.88403150312666e+05	(-5.31438511118577e+01dB,9.00511231447382e+01Ḟ)
3.01995172040208e+05	(-5.41071710323660e+01dB,9.00101675309293e+01Ḟ)
3.16227766016844e+05	(-5.46679313833522e+01dB,8.99735860745103e+01Ḟ)
3.31131121482598e+05	(-5.48128084544152e+01dB,8.99378662045047e+01Ḟ)
3.46736850452539e+05	(-5.44804656280070e+01dB,8.98994551852353e+01Ḟ)
3.63078054770109e+05	(-5.35366785616288e+01dB,8.98529223278783e+01Ḟ)
3.80189396320569e+05	(-5.16953048258781e+01dB,8.97861118728919e+01Ḟ)
3.98107170553505e+05	(-4.82273446992265e+01dB,8.96577100327632e+01Ḟ)
4.16869383470344e+05	(-4.00044393254184e+01dB,8.91391544236866e+01Ḟ)
4.36515832240175e+05	(-3.79855475841412e+01dB,-8.90621363481102e+01Ḟ)
4.57088189614884e+05	(-4.84380637297356e+01dB,-8.98014039097240e+01Ḟ)
4.78630092322648e+05	(-5.27129608986867e+01dB,-8.99505672893018e+01Ḟ)
