Freq.	V(n028)
Step Information: Run=1  (Step: 1/100)
1.00000000000000e+00	(-1.38268598014426e-01dB,-5.47657263584122e-01Ḟ)
1.04712854805090e+00	(-1.38306980743080e-01dB,-5.73465863495117e-01Ḟ)
1.09647819614319e+00	(-1.38349066178342e-01dB,-6.00490534630023e-01Ḟ)
1.14815362149688e+00	(-1.38395211471837e-01dB,-6.28788551535268e-01Ḟ)
1.20226443461741e+00	(-1.38445808216273e-01dB,-6.58419882525131e-01Ḟ)
1.25892541179417e+00	(-1.38501285765977e-01dB,-6.89447315821333e-01Ḟ)
1.31825673855641e+00	(-1.38562114874929e-01dB,-7.21936591513616e-01Ḟ)
1.38038426460289e+00	(-1.38628811687325e-01dB,-7.55956539608972e-01Ḟ)
1.44543977074593e+00	(-1.38701942110477e-01dB,-7.91579224415655e-01Ḟ)
1.51356124843621e+00	(-1.38782126609646e-01dB,-8.28880095565040e-01Ḟ)
1.58489319246111e+00	(-1.38870045462998e-01dB,-8.67938145925790e-01Ḟ)
1.65958690743756e+00	(-1.38966444523146e-01dB,-9.08836076732208e-01Ḟ)
1.73780082874938e+00	(-1.39072141531255e-01dB,-9.51660470213922e-01Ḟ)
1.81970085860999e+00	(-1.39188033039370e-01dB,-9.96501970043330e-01Ḟ)
1.90546071796325e+00	(-1.39315101996724e-01dB,-1.04345546992830e+00Ḟ)
1.99526231496888e+00	(-1.39454426064468e-01dB,-1.09262031067185e+00Ḟ)
2.08929613085404e+00	(-1.39607186729768e-01dB,-1.14410048604421e+00Ḟ)
2.18776162394956e+00	(-1.39774679292713e-01dB,-1.19800485780426e+00Ḟ)
2.29086765276778e+00	(-1.39958323811620e-01dB,-1.25444738022923e+00Ḟ)
2.39883291901949e+00	(-1.40159677097084e-01dB,-1.31354733449783e+00Ḟ)
2.51188643150958e+00	(-1.40380445854652e-01dB,-1.37542957329255e+00Ḟ)
2.63026799189539e+00	(-1.40622501085158e-01dB,-1.44022477597766e+00Ḟ)
2.75422870333817e+00	(-1.40887893861954e-01dB,-1.50806971471156e+00Ḟ)
2.88403150312661e+00	(-1.41178872615380e-01dB,-1.57910753184326e+00Ḟ)
3.01995172040202e+00	(-1.41497902067268e-01dB,-1.65348802895066e+00Ḟ)
3.16227766016839e+00	(-1.41847683970126e-01dB,-1.73136796784582e+00Ḟ)
3.31131121482592e+00	(-1.42231179822247e-01dB,-1.81291138388037e+00Ḟ)
3.46736850452532e+00	(-1.42651635742779e-01dB,-1.89828991184100e+00Ḟ)
3.63078054770102e+00	(-1.43112609709283e-01dB,-1.98768312472286e+00Ḟ)
3.80189396320562e+00	(-1.43618001379250e-01dB,-2.08127888561309e+00Ḟ)
3.98107170553498e+00	(-1.44172084734584e-01dB,-2.17927371288784e+00Ḟ)
4.16869383470336e+00	(-1.44779543810681e-01dB,-2.28187315887655e+00Ḟ)
4.36515832240167e+00	(-1.45445511795517e-01dB,-2.38929220207545e+00Ḟ)
4.57088189614876e+00	(-1.46175613809045e-01dB,-2.50175565291987e+00Ḟ)
4.78630092322640e+00	(-1.46976013695836e-01dB,-2.61949857304738e+00Ḟ)
5.01187233627274e+00	(-1.47853465201273e-01dB,-2.74276670785954e+00Ḟ)
5.24807460249774e+00	(-1.48815367920976e-01dB,-2.87181693207377e+00Ḟ)
5.49540873857626e+00	(-1.49869828458832e-01dB,-3.00691770780667e+00Ḟ)
5.75439937337159e+00	(-1.51025727250429e-01dB,-3.14834955455844e+00Ḟ)
6.02559586074359e+00	(-1.52292791559209e-01dB,-3.29640553025612e+00Ḟ)
6.30957344480195e+00	(-1.53681675178915e-01dB,-3.45139172229012e+00Ḟ)
6.60693448007598e+00	(-1.55204045428892e-01dB,-3.61362774719327e+00Ḟ)
6.91830970918939e+00	(-1.56872678062829e-01dB,-3.78344725729638e+00Ḟ)
7.24435960074992e+00	(-1.58701560760979e-01dB,-3.96119845233713e+00Ḟ)
7.58577575029186e+00	(-1.60706005919437e-01dB,-4.14724459356381e+00Ḟ)
7.94328234724284e+00	(-1.62902773499639e-01dB,-4.34196451740663e+00Ḟ)
8.31763771102674e+00	(-1.65310204744828e-01dB,-4.54575314522664e+00Ḟ)
8.70963589956084e+00	(-1.67948367617947e-01dB,-4.75902198503342e+00Ḟ)
9.12010839355913e+00	(-1.70839214864334e-01dB,-4.98219962032993e+00Ḟ)
9.54992586021439e+00	(-1.74006755635988e-01dB,-5.21573218045262e+00Ḟ)
1.00000000000000e+01	(-1.77477241663765e-01dB,-5.46008378583097e+00Ḟ)
1.04712854805090e+01	(-1.81279368987094e-01dB,-5.71573696057162e+00Ḟ)
1.09647819614319e+01	(-1.85444496278102e-01dB,-5.98319300360033e+00Ḟ)
1.14815362149689e+01	(-1.90006880810063e-01dB,-6.26297230829135e+00Ḟ)
1.20226443461742e+01	(-1.95003933119430e-01dB,-6.55561461905586e+00Ḟ)
1.25892541179417e+01	(-2.00476491386909e-01dB,-6.86167921175374e+00Ḟ)
1.31825673855641e+01	(-2.06469116525332e-01dB,-7.18174498300274e+00Ḟ)
1.38038426460289e+01	(-2.13030408886795e-01dB,-7.51641043150282e+00Ḟ)
1.44543977074593e+01	(-2.20213347398979e-01dB,-7.86629351235311e+00Ḟ)
1.51356124843621e+01	(-2.28075651789171e-01dB,-8.23203134302397e+00Ḟ)
1.58489319246112e+01	(-2.36680168360363e-01dB,-8.61427973715363e+00Ḟ)
1.65958690743757e+01	(-2.46095279521746e-01dB,-9.01371253969790e+00Ḟ)
1.73780082874938e+01	(-2.56395336950580e-01dB,-9.43102073416970e+00Ḟ)
1.81970085860999e+01	(-2.67661117849591e-01dB,-9.86691128984024e+00Ḟ)
1.90546071796326e+01	(-2.79980303260962e-01dB,-1.03221057138334e+01Ḟ)
1.99526231496889e+01	(-2.93447976785119e-01dB,-1.07973382701553e+01Ḟ)
2.08929613085405e+01	(-3.08167141316392e-01dB,-1.12933538249179e+01Ḟ)
2.18776162394956e+01	(-3.24249250540058e-01dB,-1.18109052744657e+01Ḟ)
2.29086765276778e+01	(-3.41814750915711e-01dB,-1.23507505109719e+01Ḟ)
2.39883291901950e+01	(-3.60993628696051e-01dB,-1.29136488784863e+01Ḟ)
2.51188643150959e+01	(-3.81925955179619e-01dB,-1.35003570716528e+01Ḟ)
2.63026799189540e+01	(-4.04762421885434e-01dB,-1.41116244296027e+01Ḟ)
2.75422870333818e+01	(-4.29664855638073e-01dB,-1.47481875792271e+01Ḟ)
2.88403150312662e+01	(-4.56806701713142e-01dB,-1.54107643854347e+01Ḟ)
3.01995172040203e+01	(-4.86373461197578e-01dB,-1.61000471715627e+01Ḟ)
3.16227766016840e+01	(-5.18563066634477e-01dB,-1.68166951812034e+01Ḟ)
3.31131121482593e+01	(-5.53586177876279e-01dB,-1.75613262638001e+01Ḟ)
3.46736850452534e+01	(-5.91666377958193e-01dB,-1.83345077808770e+01Ḟ)
3.63078054770103e+01	(-6.33040246795602e-01dB,-1.91367467480930e+01Ḟ)
3.80189396320563e+01	(-6.77957288755362e-01dB,-1.99684792507623e+01Ḟ)
3.98107170553500e+01	(-7.26679688766930e-01dB,-2.08300591972753e+01Ḟ)
4.16869383470338e+01	(-7.79481870826893e-01dB,-2.17217465059606e+01Ḟ)
4.36515832240169e+01	(-8.36649832679546e-01dB,-2.26436948561460e+01Ḟ)
4.57088189614878e+01	(-8.98480231348692e-01dB,-2.35959391729210e+01Ḟ)
4.78630092322641e+01	(-9.65279196273059e-01dB,-2.45783830564156e+01Ḟ)
5.01187233627275e+01	(-1.03736085023758e+00dB,-2.55907864089448e+01Ḟ)
5.24807460249776e+01	(-1.11504552331027e+00dB,-2.66327535551784e+01Ḟ)
5.49540873857628e+01	(-1.19865765167726e+00dB,-2.77037221892834e+01Ḟ)
5.75439937337161e+01	(-1.28852336168887e+00dB,-2.88029535158951e+01Ḟ)
6.02559586074362e+01	(-1.38496774950627e+00dB,-2.99295239757014e+01Ḟ)
6.30957344480197e+01	(-1.48831187830371e+00dB,-3.10823189579867e+01Ḟ)
6.60693448007600e+01	(-1.59886952766651e+00dB,-3.22600288985024e+01Ḟ)
6.91830970918941e+01	(-1.71694374315089e+00dB,-3.34611481385370e+01Ḟ)
7.24435960074995e+01	(-1.84282324727133e+00dB,-3.46839768779473e+01Ḟ)
7.58577575029189e+01	(-1.97677878566147e+00dB,-3.59266264900468e+01Ḟ)
7.94328234724287e+01	(-2.11905949294870e+00dB,-3.71870283799742e+01Ḟ)
8.31763771102677e+01	(-2.26988937107480e+00dB,-3.84629464624675e+01Ḟ)
8.70963589956087e+01	(-2.42946397754279e+00dB,-3.97519932136273e+01Ḟ)
9.12010839355916e+01	(-2.59794742165916e+00dB,-4.10516491198112e+01Ḟ)
9.54992586021443e+01	(-2.77546976279090e+00dB,-4.23592852122301e+01Ḟ)
1.00000000000001e+02	(-2.96212489579713e+00dB,-4.36721882461674e+01Ḟ)
1.04712854805091e+02	(-3.15796899529619e+00dB,-4.49875879673821e+01Ḟ)
1.09647819614319e+02	(-3.36301957285310e+00dB,-4.63026858131851e+01Ḟ)
1.14815362149689e+02	(-3.57725518040745e+00dB,-4.76146843287343e+01Ḟ)
1.20226443461742e+02	(-3.80061577049557e+00dB,-4.89208165452416e+01Ḟ)
1.25892541179418e+02	(-4.03300370040973e+00dB,-5.02183745685561e+01Ḟ)
1.31825673855642e+02	(-4.27428534481307e+00dB,-5.15047366638515e+01Ḟ)
1.38038426460290e+02	(-4.52429326082618e+00dB,-5.27773921921265e+01Ḟ)
1.44543977074594e+02	(-4.78282883239370e+00dB,-5.40339638517037e+01Ḟ)
1.51356124843622e+02	(-5.04966530767845e+00dB,-5.52722267959641e+01Ḟ)
1.58489319246113e+02	(-5.32455113484309e+00dB,-5.64901243290460e+01Ḟ)
1.65958690743757e+02	(-5.60721349799817e+00dB,-5.76857800158513e+01Ḟ)
1.73780082874939e+02	(-5.89736195612213e+00dB,-5.88575061734275e+01Ḟ)
1.81970085861000e+02	(-6.19469209287621e+00dB,-6.00038088308166e+01Ḟ)
1.90546071796326e+02	(-6.49888909372831e+00dB,-6.11233893483779e+01Ḟ)
1.99526231496890e+02	(-6.80963117779578e+00dB,-6.22151429718197e+01Ḟ)
2.08929613085406e+02	(-7.12659282442033e+00dB,-6.32781546588692e+01Ḟ)
2.18776162394957e+02	(-7.44944774781779e+00dB,-6.43116925575383e+01Ḟ)
2.29086765276779e+02	(-7.77787158643576e+00dB,-6.53151995354849e+01Ḟ)
2.39883291901951e+02	(-8.11154428624810e+00dB,-6.62882831622866e+01Ḟ)
2.51188643150960e+02	(-8.45015216864113e+00dB,-6.72307045335081e+01Ḟ)
2.63026799189540e+02	(-8.79338968346752e+00dB,-6.81423663004893e+01Ḟ)
2.75422870333819e+02	(-9.14096085609030e+00dB,-6.90233002361497e+01Ḟ)
2.88403150312663e+02	(-9.49258044375712e+00dB,-6.98736546279085e+01Ḟ)
3.01995172040204e+02	(-9.84797482149050e+00dB,-7.06936817468281e+01Ḟ)
3.16227766016841e+02	(-1.02068826209845e+01dB,-7.14837255996137e+01Ḟ)
3.31131121482594e+02	(-1.05690551479400e+01dB,-7.22442101289811e+01Ḟ)
3.46736850452535e+02	(-1.09342566040590e+01dB,-7.29756279894666e+01Ḟ)
3.63078054770105e+02	(-1.13022641397637e+01dB,-7.36785299909434e+01Ḟ)
3.80189396320565e+02	(-1.16728677628228e+01dB,-7.43535152713977e+01Ḟ)
3.98107170553501e+02	(-1.20458701266421e+01dB,-7.50012222341843e+01Ḟ)
4.16869383470339e+02	(-1.24210862201805e+01dB,-7.56223202629375e+01Ḟ)
4.36515832240170e+02	(-1.27983429794336e+01dB,-7.62175022093906e+01Ḟ)
4.57088189614879e+02	(-1.31774788382975e+01dB,-7.67874776352063e+01Ḟ)
4.78630092322643e+02	(-1.35583432344817e+01dB,-7.73329667781585e+01Ḟ)
5.01187233627277e+02	(-1.39407960840546e+01dB,-7.78546952051787e+01Ḟ)
5.24807460249778e+02	(-1.43247072362230e+01dB,-7.83533891094831e+01Ḟ)
5.49540873857630e+02	(-1.47099559181081e+01dB,-7.88297712057720e+01Ḟ)
5.75439937337163e+02	(-1.50964301776024e+01dB,-7.92845571759880e+01Ḟ)
6.02559586074364e+02	(-1.54840263308826e+01dB,-7.97184526179566e+01Ḟ)
6.30957344480200e+02	(-1.58726484198168e+01dB,-8.01321504501267e+01Ḟ)
6.60693448007603e+02	(-1.62622076833381e+01dB,-8.05263287272977e+01Ḟ)
6.91830970918944e+02	(-1.66526220458399e+01dB,-8.09016488244578e+01Ḟ)
7.24435960074998e+02	(-1.70438156247903e+01dB,-8.12587539484712e+01Ḟ)
7.58577575029192e+02	(-1.74357182590245e+01dB,-8.15982679402016e+01Ḟ)
7.94328234724290e+02	(-1.78282650585695e+01dB,-8.19207943326226e+01Ḟ)
8.31763771102680e+02	(-1.82213959763436e+01dB,-8.22269156334549e+01Ḟ)
8.70963589956090e+02	(-1.86150554016642e+01dB,-8.25171928038178e+01Ḟ)
9.12010839355920e+02	(-1.90091917751623e+01dB,-8.27921649072466e+01Ḟ)
9.54992586021446e+02	(-1.94037572244387e+01dB,-8.30523489061512e+01Ḟ)
1.00000000000001e+03	(-1.97987072195906e+01dB,-8.32982395853929e+01Ḟ)
1.04712854805091e+03	(-2.01940002475816e+01dB,-8.35303095850820e+01Ḟ)
1.09647819614320e+03	(-2.05895975043101e+01dB,-8.37490095269766e+01Ḟ)
1.14815362149690e+03	(-2.09854626031522e+01dB,-8.39547682209796e+01Ḟ)
1.20226443461743e+03	(-2.13815612986992e+01dB,-8.41479929401961e+01Ḟ)
1.25892541179418e+03	(-2.17778612243800e+01dB,-8.43290697548400e+01Ḟ)
1.31825673855642e+03	(-2.21743316426458e+01dB,-8.44983639169723e+01Ḟ)
1.38038426460290e+03	(-2.25709432063975e+01dB,-8.46562202896389e+01Ḟ)
1.44543977074594e+03	(-2.29676677303538e+01dB,-8.48029638154502e+01Ḟ)
1.51356124843623e+03	(-2.33644779710799e+01dB,-8.49389000210441e+01Ḟ)
1.58489319246113e+03	(-2.37613474144367e+01dB,-8.50643155551932e+01Ḟ)
1.65958690743758e+03	(-2.41582500692517e+01dB,-8.51794787595848e+01Ḟ)
1.73780082874940e+03	(-2.45551602660650e+01dB,-8.52846402725258e+01Ḟ)
1.81970085861001e+03	(-2.49520524598652e+01dB,-8.53800336670179e+01Ḟ)
1.90546071796327e+03	(-2.53489010357986e+01dB,-8.54658761258278e+01Ḟ)
1.99526231496890e+03	(-2.57456801169169e+01dB,-8.55423691573443e+01Ḟ)
2.08929613085406e+03	(-2.61423633731194e+01dB,-8.56096993571907e+01Ḟ)
2.18776162394958e+03	(-2.65389238305549e+01dB,-8.56680392217392e+01Ḟ)
2.29086765276780e+03	(-2.69353336808732e+01dB,-8.57175480208722e+01Ḟ)
2.39883291901952e+03	(-2.73315640898625e+01dB,-8.57583727385424e+01Ḟ)
2.51188643150961e+03	(-2.77275850051803e+01dB,-8.57906490909039e+01Ḟ)
2.63026799189541e+03	(-2.81233649630883e+01dB,-8.58145026330042e+01Ḟ)
2.75422870333820e+03	(-2.85188708943354e+01dB,-8.58300499662363e+01Ḟ)
2.88403150312664e+03	(-2.89140679296130e+01dB,-8.58374000599156e+01Ḟ)
3.01995172040205e+03	(-2.93089192053283e+01dB,-8.58366557014476e+01Ḟ)
3.16227766016842e+03	(-2.97033856708151e+01dB,-8.58279150905347e+01Ḟ)
3.31131121482595e+03	(-3.00974258985400e+01dB,-8.58112735936857e+01Ḟ)
3.46736850452536e+03	(-3.04909958993573e+01dB,-8.57868256758597e+01Ḟ)
3.63078054770106e+03	(-3.08840489454362e+01dB,-8.57546670263076e+01Ḟ)
3.80189396320566e+03	(-3.12765354041251e+01dB,-8.57148968954649e+01Ḟ)
3.98107170553503e+03	(-3.16684025867336e+01dB,-8.56676206589508e+01Ḟ)
4.16869383470341e+03	(-3.20595946170038e+01dB,-8.56129526232046e+01Ḟ)
4.36515832240172e+03	(-3.24500523249011e+01dB,-8.55510190848389e+01Ḟ)
4.57088189614881e+03	(-3.28397131722656e+01dB,-8.54819616522262e+01Ḟ)
4.78630092322645e+03	(-3.32285112178232e+01dB,-8.54059408329243e+01Ḟ)
5.01187233627279e+03	(-3.36163771300135e+01dB,-8.53231398840636e+01Ḟ)
5.24807460249780e+03	(-3.40032382570284e+01dB,-8.52337689145116e+01Ḟ)
5.49540873857632e+03	(-3.43890187643124e+01dB,-8.51380692172853e+01Ḟ)
5.75439937337165e+03	(-3.47736398504827e+01dB,-8.50363177980915e+01Ḟ)
6.02559586074366e+03	(-3.51570200531101e+01dB,-8.49288320509051e+01Ḟ)
6.30957344480202e+03	(-3.55390756559549e+01dB,-8.48159745141022e+01Ḟ)
6.60693448007605e+03	(-3.59197212089631e+01dB,-8.46981576209289e+01Ḟ)
6.91830970918946e+03	(-3.62988701714670e+01dB,-8.45758483362787e+01Ḟ)
7.24435960075000e+03	(-3.66764356874591e+01dB,-8.44495725483656e+01Ḟ)
7.58577575029195e+03	(-3.70523314993833e+01dB,-8.43199190596987e+01Ḟ)
7.94328234724293e+03	(-3.74264730034747e+01dB,-8.41875429978765e+01Ḟ)
8.31763771102683e+03	(-3.77987784451739e+01dB,-8.40531684446142e+01Ḟ)
8.70963589956093e+03	(-3.81691702474682e+01dB,-8.39175900628962e+01Ḟ)
9.12010839355923e+03	(-3.85375764581753e+01dB,-8.37816734894063e+01Ḟ)
9.54992586021450e+03	(-3.89039322942494e+01dB,-8.36463542548595e+01Ḟ)
1.00000000000001e+04	(-3.92681817523534e+01dB,-8.35126350011377e+01Ḟ)
1.04712854805092e+04	(-3.96302792455074e+01dB,-8.33815807837434e+01Ḟ)
1.09647819614320e+04	(-3.99901912160501e+01dB,-8.32543122832700e+01Ḟ)
1.14815362149690e+04	(-4.03478976660202e+01dB,-8.31319968019414e+01Ḟ)
1.20226443461743e+04	(-4.07033935380987e+01dB,-8.30158369914450e+01Ḟ)
1.25892541179419e+04	(-4.10566898742427e+01dB,-8.29070573455883e+01Ḟ)
1.31825673855643e+04	(-4.14078146759295e+01dB,-8.28068885934787e+01Ḟ)
1.38038426460291e+04	(-4.17568133902938e+01dB,-8.27165502418557e+01Ḟ)
1.44543977074595e+04	(-4.21037489510348e+01dB,-8.26372316330157e+01Ḟ)
1.51356124843623e+04	(-4.24487013122085e+01dB,-8.25700719998980e+01Ḟ)
1.58489319246114e+04	(-4.27917664269731e+01dB,-8.25161401036518e+01Ḟ)
1.65958690743759e+04	(-4.31330546417099e+01dB,-8.24764141221421e+01Ḟ)
1.73780082874940e+04	(-4.34726884979134e+01dB,-8.24517625115447e+01Ḟ)
1.81970085861001e+04	(-4.38107999586407e+01dB,-8.24429265799924e+01Ḟ)
1.90546071796328e+04	(-4.41475271015481e+01dB,-8.24505054870846e+01Ḟ)
1.99526231496891e+04	(-4.44830103448090e+01dB,-8.24749443141171e+01Ḟ)
2.08929613085407e+04	(-4.48173882935907e+01dB,-8.25165257390069e+01Ḟ)
2.18776162394959e+04	(-4.51507933114905e+01dB,-8.25753657028407e+01Ḟ)
2.29086765276781e+04	(-4.54833469319004e+01dB,-8.26514132810199e+01Ḟ)
2.39883291901953e+04	(-4.58151552276845e+01dB,-8.27444547831094e+01Ḟ)
2.51188643150962e+04	(-4.61463042533977e+01dB,-8.28541219152150e+01Ḟ)
2.63026799189542e+04	(-4.64768556627683e+01dB,-8.29799036607213e+01Ḟ)
2.75422870333821e+04	(-4.68068425861481e+01dB,-8.31211613819237e+01Ḟ)
2.88403150312665e+04	(-4.71362658294221e+01dB,-8.32771465264520e+01Ḟ)
3.01995172040207e+04	(-4.74650904291448e+01dB,-8.34470202449928e+01Ḟ)
3.16227766016843e+04	(-4.77932425702470e+01dB,-8.36298741934275e+01Ḟ)
3.31131121482597e+04	(-4.81206068442918e+01dB,-8.38247518020979e+01Ḟ)
3.46736850452537e+04	(-4.84470237994898e+01dB,-8.40306693430962e+01Ḟ)
3.63078054770107e+04	(-4.87722877096637e+01dB,-8.42466362063564e+01Ḟ)
3.80189396320568e+04	(-4.90961444687845e+01dB,-8.44716738983596e+01Ḟ)
3.98107170553504e+04	(-4.94182895008129e+01dB,-8.47048333944069e+01Ḟ)
4.16869383470342e+04	(-4.97383655610986e+01dB,-8.49452105979622e+01Ḟ)
4.36515832240173e+04	(-5.00559602948656e+01dB,-8.51919597809296e+01Ḟ)
4.57088189614883e+04	(-5.03706034093107e+01dB,-8.54443049909826e+01Ḟ)
4.78630092322647e+04	(-5.06817633072776e+01dB,-8.57015495121758e+01Ḟ)
5.01187233627281e+04	(-5.09888430208099e+01dB,-8.59630835509922e+01Ḟ)
5.24807460249782e+04	(-5.12911752704321e+01dB,-8.62283903915466e+01Ḟ)
5.49540873857634e+04	(-5.15880164588195e+01dB,-8.64970513223885e+01Ḟ)
5.75439937337167e+04	(-5.18785393834030e+01dB,-8.67687496862169e+01Ḟ)
6.02559586074368e+04	(-5.21618244187988e+01dB,-8.70432744471081e+01Ḟ)
6.30957344480204e+04	(-5.24368488735402e+01dB,-8.73205237131041e+01Ḟ)
6.60693448007608e+04	(-5.27024741622437e+01dB,-8.76005087021068e+01Ḟ)
6.91830970918949e+04	(-5.29574303485139e+01dB,-8.78833587046465e+01Ḟ)
7.24435960075003e+04	(-5.32002974978965e+01dB,-8.81693276894784e+01Ḟ)
7.58577575029197e+04	(-5.34294831232331e+01dB,-8.84588033322669e+01Ḟ)
7.94328234724296e+04	(-5.36431947913562e+01dB,-8.87523194452207e+01Ḟ)
8.31763771102686e+04	(-5.38394066675720e+01dB,-8.90505730777352e+01Ḟ)
8.70963589956096e+04	(-5.40158183693202e+01dB,-8.93544479922503e+01Ḟ)
9.12010839355926e+04	(-5.41698039323007e+01dB,-8.96650468693989e+01Ḟ)
9.54992586021453e+04	(-5.42983478838235e+01dB,-8.99837355798926e+01Ḟ)
1.00000000000002e+05	(-5.43979642482126e+01dB,-9.03122043702966e+01Ḟ)
1.04712854805092e+05	(-5.44645925846404e+01dB,-9.06525531695536e+01Ḟ)
1.09647819614321e+05	(-5.44934625631360e+01dB,-9.10074119910019e+01Ḟ)
1.14815362149690e+05	(-5.44789145902342e+01dB,-9.13801135718611e+01Ḟ)
1.20226443461744e+05	(-5.44141576876465e+01dB,-9.17749457771892e+01Ḟ)
1.25892541179419e+05	(-5.42909355750904e+01dB,-9.21975293586718e+01Ḟ)
1.31825673855643e+05	(-5.40990546962365e+01dB,-9.26553992640123e+01Ḟ)
1.38038426460291e+05	(-5.38256979397981e+01dB,-9.31589291136438e+01Ḟ)
1.44543977074595e+05	(-5.34543932879911e+01dB,-9.37228600476021e+01Ḟ)
1.51356124843624e+05	(-5.29634024484600e+01dB,-9.43689502960691e+01Ḟ)
1.58489319246114e+05	(-5.23230834268251e+01dB,-9.51308359434238e+01Ḟ)
1.65958690743759e+05	(-5.14913220095069e+01dB,-9.60635997891752e+01Ḟ)
1.73780082874941e+05	(-5.04050394891594e+01dB,-9.72643767104080e+01Ḟ)
1.81970085861002e+05	(-4.89629152438221e+01dB,-9.89222968147331e+01Ḟ)
1.90546071796328e+05	(-4.69858008330722e+01dB,-1.01461104741308e+02Ḟ)
1.99526231496892e+05	(-4.41104610564045e+01dB,-1.06059244188247e+02Ḟ)
2.08929613085408e+05	(-3.94532306083991e+01dB,-1.17496421326998e+02Ḟ)
2.18776162394960e+05	(-3.24010624898526e+01dB,-1.70411491232585e+02Ḟ)
2.29086765276782e+05	(-3.83414226049765e+01dB,1.17027933013386e+02Ḟ)
2.39883291901954e+05	(-4.40815926286680e+01dB,1.01739527356685e+02Ḟ)
2.51188643150963e+05	(-4.76530182128897e+01dB,9.62024564154655e+01Ḟ)
2.63026799189543e+05	(-5.01337964797008e+01dB,9.32364669342289e+01Ḟ)
2.75422870333822e+05	(-5.19377939295643e+01dB,9.12784185240914e+01Ḟ)
2.88403150312666e+05	(-5.32438579260017e+01dB,8.97963335942352e+01Ḟ)
3.01995172040208e+05	(-5.41299926404046e+01dB,8.85527320945546e+01Ḟ)
3.16227766016844e+05	(-5.46178496721605e+01dB,8.74140036612044e+01Ḟ)
3.31131121482598e+05	(-5.46854837814460e+01dB,8.62803902877373e+01Ḟ)
3.46736850452539e+05	(-5.42615764723748e+01dB,8.50432886438111e+01Ḟ)
3.63078054770109e+05	(-5.31951943093248e+01dB,8.35250639080721e+01Ḟ)
3.80189396320569e+05	(-5.11621651540094e+01dB,8.13033841313957e+01Ḟ)
3.98107170553505e+05	(-4.73119915623886e+01dB,7.68235269473590e+01Ḟ)
4.16869383470344e+05	(-3.79812998783822e+01dB,5.51436861971041e+01Ḟ)
4.36515832240175e+05	(-4.15059092293527e+01dB,-7.46765776174348e+01Ḟ)
4.57088189614884e+05	(-4.94430097340694e+01dB,-8.77414771769299e+01Ḟ)
4.78630092322648e+05	(-5.31945599808329e+01dB,-9.15461580198344e+01Ḟ)
