Freq.	V(n028)
Step Information: Run=1  (Step: 1/100)
1.00000000000000e+00	(-1.38226118400739e-01dB,-5.34166434395156e-01Ḟ)
1.04712854805090e+00	(-1.38263368912226e-01dB,-5.59339302860108e-01Ḟ)
1.09647819614319e+00	(-1.38304212917812e-01dB,-5.85698292075645e-01Ḟ)
1.14815362149688e+00	(-1.38348997036877e-01dB,-6.13299266642045e-01Ḟ)
1.20226443461741e+00	(-1.38398101314913e-01dB,-6.42200718708667e-01Ḟ)
1.25892541179417e+00	(-1.38451942445696e-01dB,-6.72463891031917e-01Ḟ)
1.31825673855641e+00	(-1.38510977302595e-01dB,-7.04152905707343e-01Ḟ)
1.38038426460289e+00	(-1.38575706811703e-01dB,-7.37334898846969e-01Ḟ)
1.44543977074593e+00	(-1.38646680195779e-01dB,-7.72080161439407e-01Ḟ)
1.51356124843621e+00	(-1.38724499627785e-01dB,-8.08462286683964e-01Ḟ)
1.58489319246111e+00	(-1.38809825331969e-01dB,-8.46558324063818e-01Ḟ)
1.65958690743756e+00	(-1.38903381175169e-01dB,-8.86448940449869e-01Ḟ)
1.73780082874938e+00	(-1.39005960795671e-01dB,-9.28218588533012e-01Ḟ)
1.81970085860999e+00	(-1.39118434322029e-01dB,-9.71955682894941e-01Ḟ)
1.90546071796325e+00	(-1.39241755735947e-01dB,-1.01775278402438e+00Ḟ)
1.99526231496888e+00	(-1.39376970943619e-01dB,-1.06570679060883e+00Ḟ)
2.08929613085404e+00	(-1.39525226621275e-01dB,-1.11591914042809e+00Ḟ)
2.18776162394956e+00	(-1.39687779909503e-01dB,-1.16849602019432e+00Ḟ)
2.29086765276778e+00	(-1.39866009037288e-01dB,-1.22354858467440e+00Ḟ)
2.39883291901949e+00	(-1.40061424964448e-01dB,-1.28119318544595e+00Ḟ)
2.51188643150958e+00	(-1.40275684139200e-01dB,-1.34155160964075e+00Ḟ)
2.63026799189539e+00	(-1.40510602476635e-01dB,-1.40475132903150e+00Ḟ)
2.75422870333817e+00	(-1.40768170674436e-01dB,-1.47092575980392e+00Ḟ)
2.88403150312661e+00	(-1.41050570991633e-01dB,-1.54021453337556e+00Ḟ)
3.01995172040202e+00	(-1.41360195630174e-01dB,-1.61276377860341e+00Ḟ)
3.16227766016839e+00	(-1.41699666868831e-01dB,-1.68872641570502e+00Ḟ)
3.31131121482592e+00	(-1.42071859115667e-01dB,-1.76826246222534e+00Ḟ)
3.46736850452532e+00	(-1.42479923058752e-01dB,-1.85153935134477e+00Ḟ)
3.63078054770102e+00	(-1.42927312111526e-01dB,-1.93873226280330e+00Ḟ)
3.80189396320562e+00	(-1.43417811368065e-01dB,-2.03002446668918e+00Ḟ)
3.98107170553498e+00	(-1.43955569300531e-01dB,-2.12560768029914e+00Ḟ)
4.16869383470336e+00	(-1.44545132453541e-01dB,-2.22568243822585e+00Ḟ)
4.36515832240167e+00	(-1.45191483413705e-01dB,-2.33045847577003e+00Ḟ)
4.57088189614876e+00	(-1.45900082354355e-01dB,-2.44015512570549e+00Ḟ)
4.78630092322640e+00	(-1.46676912482325e-01dB,-2.55500172834405e+00Ḟ)
5.01187233627274e+00	(-1.47528529743332e-01dB,-2.67523805473475e+00Ḟ)
5.24807460249774e+00	(-1.48462117170862e-01dB,-2.80111474271934e+00Ḟ)
5.49540873857626e+00	(-1.49485544297200e-01dB,-2.93289374542278e+00Ḟ)
5.75439937337159e+00	(-1.50607432075902e-01dB,-3.07084879159584e+00Ḟ)
6.02559586074359e+00	(-1.51837223807245e-01dB,-3.21526585701915e+00Ḟ)
6.30957344480195e+00	(-1.53185262590886e-01dB,-3.36644364596951e+00Ḟ)
6.60693448007598e+00	(-1.54662875874360e-01dB,-3.52469408147282e+00Ḟ)
6.91830970918939e+00	(-1.56282467706111e-01dB,-3.69034280277002e+00Ḟ)
7.24435960074992e+00	(-1.58057619347150e-01dB,-3.86372966807594e+00Ḟ)
7.58577575029186e+00	(-1.60003198940488e-01dB,-4.04520926029449e+00Ḟ)
7.94328234724284e+00	(-1.62135480983723e-01dB,-4.23515139290661e+00Ḟ)
8.31763771102674e+00	(-1.64472276396831e-01dB,-4.43394161270401e+00Ḟ)
8.70963589956084e+00	(-1.67033074025055e-01dB,-4.64198169544541e+00Ḟ)
9.12010839355913e+00	(-1.69839194460943e-01dB,-4.85969012981643e+00Ḟ)
9.54992586021439e+00	(-1.72913957114246e-01dB,-5.08750258429614e+00Ḟ)
1.00000000000000e+01	(-1.76282861495363e-01dB,-5.32587235064501e+00Ḟ)
1.04712854805090e+01	(-1.79973783717045e-01dB,-5.57527075672911e+00Ḟ)
1.09647819614319e+01	(-1.84017189238339e-01dB,-5.83618754027482e+00Ḟ)
1.14815362149689e+01	(-1.88446362899264e-01dB,-6.10913117388097e+00Ḟ)
1.20226443461742e+01	(-1.93297657292082e-01dB,-6.39462913021067e+00Ḟ)
1.25892541179417e+01	(-1.98610760503028e-01dB,-6.69322807472618e+00Ḟ)
1.31825673855641e+01	(-2.04428984221925e-01dB,-7.00549397159035e+00Ḟ)
1.38038426460289e+01	(-2.10799573160114e-01dB,-7.33201208645499e+00Ḟ)
1.44543977074593e+01	(-2.17774036613252e-01dB,-7.67338686778233e+00Ḟ)
1.51356124843621e+01	(-2.25408502881168e-01dB,-8.03024168606898e+00Ḟ)
1.58489319246112e+01	(-2.33764097069190e-01dB,-8.40321840791244e+00Ḟ)
1.65958690743757e+01	(-2.42907342556711e-01dB,-8.79297677926201e+00Ḟ)
1.73780082874938e+01	(-2.52910586116927e-01dB,-9.20019358944215e+00Ḟ)
1.81970085860999e+01	(-2.63852446283662e-01dB,-9.62556158469035e+00Ḟ)
1.90546071796326e+01	(-2.75818284089438e-01dB,-1.00697880970294e+01Ḟ)
1.99526231496889e+01	(-2.88900694719261e-01dB,-1.05335933513778e+01Ḟ)
2.08929613085405e+01	(-3.03200017929583e-01dB,-1.10177084109690e+01Ḟ)
2.18776162394956e+01	(-3.18824864256032e-01dB,-1.15228727185165e+01Ḟ)
2.29086765276778e+01	(-3.35892653062174e-01dB,-1.20498311882696e+01Ḟ)
2.39883291901950e+01	(-3.54530157351793e-01dB,-1.25993308023238e+01Ḟ)
2.51188643150959e+01	(-3.74874048977587e-01dB,-1.31721166634987e+01Ḟ)
2.63026799189540e+01	(-3.97071436410207e-01dB,-1.37689274570252e+01Ḟ)
2.75422870333818e+01	(-4.21280385595614e-01dB,-1.43904902745040e+01Ḟ)
2.88403150312662e+01	(-4.47670412627397e-01dB,-1.50375147564193e+01Ḟ)
3.01995172040203e+01	(-4.76422935010307e-01dB,-1.57106865143416e+01Ḟ)
3.16227766016840e+01	(-5.07731666229297e-01dB,-1.64106598012017e+01Ḟ)
3.31131121482593e+01	(-5.41802936201821e-01dB,-1.71380494081265e+01Ḟ)
3.46736850452534e+01	(-5.78855918058964e-01dB,-1.78934217797250e+01Ḟ)
3.63078054770103e+01	(-6.19122739646119e-01dB,-1.86772853568009e+01Ḟ)
3.80189396320563e+01	(-6.62848456282882e-01dB,-1.94900801766116e+01Ḟ)
3.98107170553500e+01	(-7.10290859803975e-01dB,-2.03321667862090e+01Ḟ)
4.16869383470338e+01	(-7.61720097888161e-01dB,-2.12038145541731e+01Ḟ)
4.36515832240169e+01	(-8.17418077355003e-01dB,-2.21051895000271e+01Ḟ)
4.57088189614878e+01	(-8.77677625673561e-01dB,-2.30363417983498e+01Ḟ)
4.78630092322641e+01	(-9.42801386607259e-01dB,-2.39971931552429e+01Ḟ)
5.01187233627275e+01	(-1.01310042890936e+00dB,-2.49875242971514e+01Ḟ)
5.24807460249776e+01	(-1.08889255148500e+00dB,-2.60069628543069e+01Ḟ)
5.49540873857628e+01	(-1.17050027458600e+00dB,-2.70549719610978e+01Ḟ)
5.75439937337161e+01	(-1.25824851447377e+00dB,-2.81308399307569e+01Ḟ)
6.02559586074362e+01	(-1.35246194855884e+00dB,-2.92336713888566e+01Ḟ)
6.30957344480197e+01	(-1.45346208914333e+00dB,-3.03623802659243e+01Ḟ)
6.60693448007600e+01	(-1.56156409626917e+00dB,-3.15156850507286e+01Ḟ)
6.91830970918941e+01	(-1.67707337336136e+00dB,-3.26921066893856e+01Ḟ)
7.24435960074995e+01	(-1.80028200273096e+00dB,-3.38899694789872e+01Ḟ)
7.58577575029189e+01	(-1.93146509082773e+00dB,-3.51074052464713e+01Ḟ)
7.94328234724287e+01	(-2.07087710454129e+00dB,-3.63423610237876e+01Ḟ)
8.31763771102677e+01	(-2.21874828894855e+00dB,-3.75926103305195e+01Ḟ)
8.70963589956087e+01	(-2.37528126280166e+00dB,-3.88557680582279e+01Ḟ)
9.12010839355916e+01	(-2.54064789000265e+00dB,-4.01293088218544e+01Ḟ)
9.54992586021443e+01	(-2.71498652273571e+00dB,-4.14105885091927e+01Ḟ)
1.00000000000001e+02	(-2.89839970456319e+00dB,-4.26968686274174e+01Ḟ)
1.04712854805091e+02	(-3.09095240969288e+00dB,-4.39853429243397e+01Ḟ)
1.09647819614319e+02	(-3.29267087823380e+00dB,-4.52731656596235e+01Ḟ)
1.14815362149689e+02	(-3.50354208736285e+00dB,-4.65574808249375e+01Ḟ)
1.20226443461742e+02	(-3.72351387603667e+00dB,-4.78354515675388e+01Ḟ)
1.25892541179418e+02	(-3.95249571750823e+00dB,-4.91042890624536e+01Ḟ)
1.31825673855642e+02	(-4.19036011087570e+00dB,-5.03612801049295e+01Ḟ)
1.38038426460290e+02	(-4.43694454157949e+00dB,-5.16038127552269e+01Ḟ)
1.44543977074594e+02	(-4.69205394240387e+00dB,-5.28293994576007e+01Ḟ)
1.51356124843622e+02	(-4.95546357210304e+00dB,-5.40356971680217e+01Ḟ)
1.58489319246113e+02	(-5.22692221887905e+00dB,-5.52205241529914e+01Ḟ)
1.65958690743757e+02	(-5.50615563085642e+00dB,-5.63818732563457e+01Ḟ)
1.73780082874939e+02	(-5.79287007532506e+00dB,-5.75179215640586e+01Ḟ)
1.81970085861000e+02	(-6.08675593243092e+00dB,-5.86270365215156e+01Ḟ)
1.90546071796326e+02	(-6.38749123652761e+00dB,-5.97077786676144e+01Ḟ)
1.99526231496890e+02	(-6.69474508872511e+00dB,-6.07589012412468e+01Ḟ)
2.08929613085406e+02	(-7.00818087639427e+00dB,-6.17793469858122e+01Ḟ)
2.18776162394957e+02	(-7.32745924860765e+00dB,-6.27682425257962e+01Ḟ)
2.29086765276779e+02	(-7.65224080992930e+00dB,-6.37248907168655e+01Ḟ)
2.39883291901951e+02	(-7.98218850789262e+00dB,-6.46487613794363e+01Ḟ)
2.51188643150960e+02	(-8.31696970142742e+00dB,-6.55394808179520e+01Ḟ)
2.63026799189540e+02	(-8.65625790801180e+00dB,-6.63968205074162e+01Ḟ)
2.75422870333819e+02	(-8.99973423623348e+00dB,-6.72206852983601e+01Ḟ)
2.88403150312663e+02	(-9.34708851765950e+00dB,-6.80111014545781e+01Ḟ)
3.01995172040204e+02	(-9.69802015745860e+00dB,-6.87682047975291e+01Ḟ)
3.16227766016841e+02	(-1.00522387272223e+01dB,-6.94922291896852e+01Ḟ)
3.31131121482594e+02	(-1.04094643260493e+01dB,-7.01834955482921e+01Ḟ)
3.46736850452535e+02	(-1.07694277374099e+01dB,-7.08424015424334e+01Ḟ)
3.63078054770105e+02	(-1.11318704098039e+01dB,-7.14694120909284e+01Ḟ)
3.80189396320565e+02	(-1.14965442889926e+01dB,-7.20650507470490e+01Ḟ)
3.98107170553501e+02	(-1.18632115288161e+01dB,-7.26298920285056e+01Ḟ)
4.16869383470339e+02	(-1.22316441064912e+01dB,-7.31645547275773e+01Ḟ)
4.36515832240170e+02	(-1.26016233669705e+01dB,-7.36696962163568e+01Ḟ)
4.57088189614879e+02	(-1.29729395195580e+01dB,-7.41460077454236e+01Ḟ)
4.78630092322643e+02	(-1.33453911086160e+01dB,-7.45942107202874e+01Ḟ)
5.01187233627277e+02	(-1.37187844789308e+01dB,-7.50150539280531e+01Ḟ)
5.24807460249778e+02	(-1.40929332551710e+01dB,-7.54093116763121e+01Ḟ)
5.49540873857630e+02	(-1.44676578538837e+01dB,-7.57777827966068e+01Ḟ)
5.75439937337163e+02	(-1.48427850456277e+01dB,-7.61212904553404e+01Ḟ)
6.02559586074364e+02	(-1.52181475840994e+01dB,-7.64406827051255e+01Ḟ)
6.30957344480200e+02	(-1.55935839184095e+01dB,-7.67368336987810e+01Ḟ)
6.60693448007603e+02	(-1.59689380039516e+01dB,-7.70106454760846e+01Ḟ)
6.91830970918944e+02	(-1.63440592264528e+01dB,-7.72630502196791e+01Ḟ)
7.24435960074998e+02	(-1.67188024527107e+01dB,-7.74950128610897e+01Ḟ)
7.58577575029192e+02	(-1.70930282200632e+01dB,-7.77075339006823e+01Ḟ)
7.94328234724290e+02	(-1.74666030746649e+01dB,-7.79016522869209e+01Ḟ)
8.31763771102680e+02	(-1.78394000660239e+01dB,-7.80784481810073e+01Ḟ)
8.70963589956090e+02	(-1.82112994018291e+01dB,-7.82390454138669e+01Ḟ)
9.12010839355920e+02	(-1.85821892627786e+01dB,-7.83846134246913e+01Ḟ)
9.54992586021446e+02	(-1.89519667718044e+01dB,-7.85163684555159e+01Ḟ)
1.00000000000001e+03	(-1.93205391057647e+01dB,-7.86355737665158e+01Ḟ)
1.04712854805091e+03	(-1.96878247304001e+01dB,-7.87435386341003e+01Ḟ)
1.09647819614320e+03	(-2.00537547312645e+01dB,-7.88416159008079e+01Ḟ)
1.14815362149690e+03	(-2.04182742047281e+01dB,-7.89311978648579e+01Ḟ)
1.20226443461743e+03	(-2.07813436644031e+01dB,-7.90137103300614e+01Ḟ)
1.25892541179418e+03	(-2.11429404099860e+01dB,-7.90906046852231e+01Ḟ)
1.31825673855642e+03	(-2.15030597982023e+01dB,-7.91633479468809e+01Ḟ)
1.38038426460290e+03	(-2.18617163499999e+01dB,-7.92334107797204e+01Ḟ)
1.44543977074594e+03	(-2.22189446251565e+01dB,-7.93022536033478e+01Ḟ)
1.51356124843623e+03	(-2.25747997957544e+01dB,-7.93713109986502e+01Ḟ)
1.58489319246113e+03	(-2.29293578541820e+01dB,-7.94419747364241e+01Ḟ)
1.65958690743758e+03	(-2.32827153998263e+01dB,-7.95155758584263e+01Ḟ)
1.73780082874940e+03	(-2.36349889615457e+01dB,-7.95933663384705e+01Ḟ)
1.81970085861001e+03	(-2.39863138300862e+01dB,-7.96765009301386e+01Ḟ)
1.90546071796327e+03	(-2.43368423951457e+01dB,-7.97660198597733e+01Ḟ)
1.99526231496890e+03	(-2.46867420047188e+01dB,-7.98628330416651e+01Ḟ)
2.08929613085406e+03	(-2.50361923882308e+01dB,-7.99677064718205e+01Ḟ)
2.18776162394958e+03	(-2.53853827081133e+01dB,-8.00812513954523e+01Ḟ)
2.29086765276780e+03	(-2.57345083251371e+01dB,-8.02039167428942e+01Ḟ)
2.39883291901952e+03	(-2.60837673793195e+01dB,-8.03359851941761e+01Ḟ)
2.51188643150961e+03	(-2.64333572991866e+01dB,-8.04775730724400e+01Ḟ)
2.63026799189541e+03	(-2.67834713566528e+01dB,-8.06286340918389e+01Ḟ)
2.75422870333820e+03	(-2.71342953823733e+01dB,-8.07889668090244e+01Ḟ)
2.88403150312664e+03	(-2.74860047473714e+01dB,-8.09582254616396e+01Ḟ)
3.01995172040205e+03	(-2.78387617017898e+01dB,-8.11359337339488e+01Ḟ)
3.16227766016842e+03	(-2.81927131420736e+01dB,-8.13215008782630e+01Ḟ)
3.31131121482595e+03	(-2.85479888553268e+01dB,-8.15142395473157e+01Ḟ)
3.46736850452536e+03	(-2.89047002657794e+01dB,-8.17133846598592e+01Ḟ)
3.63078054770106e+03	(-2.92629396849515e+01dB,-8.19181126285036e+01Ḟ)
3.80189396320566e+03	(-2.96227800457478e+01dB,-8.21275603211286e+01Ḟ)
3.98107170553503e+03	(-2.99842750825510e+01dB,-8.23408431985449e+01Ḟ)
4.16869383470341e+03	(-3.03474599052046e+01dB,-8.25570721634032e+01Ḟ)
4.36515832240172e+03	(-3.07123519049814e+01dB,-8.27753687601035e+01Ḟ)
4.57088189614881e+03	(-3.10789519252134e+01dB,-8.29948784743424e+01Ḟ)
4.78630092322645e+03	(-3.14472456278799e+01dB,-8.32147819866678e+01Ḟ)
5.01187233627279e+03	(-3.18172049895508e+01dB,-8.34343043311566e+01Ḟ)
5.24807460249780e+03	(-3.21887898649391e+01dB,-8.36527219939859e+01Ḟ)
5.49540873857632e+03	(-3.25619495631573e+01dB,-8.38693680547084e+01Ḟ)
5.75439937337165e+03	(-3.29366243898441e+01dB,-8.40836355246817e+01Ḟ)
6.02559586074366e+03	(-3.33127471169391e+01dB,-8.42949790725830e+01Ḟ)
6.30957344480202e+03	(-3.36902443504677e+01dB,-8.45029153477518e+01Ḟ)
6.60693448007605e+03	(-3.40690377748112e+01dB,-8.47070221200945e+01Ḟ)
6.91830970918946e+03	(-3.44490452592560e+01dB,-8.49069364528892e+01Ḟ)
7.24435960075000e+03	(-3.48301818189565e+01dB,-8.51023521143560e+01Ḟ)
7.58577575029195e+03	(-3.52123604277099e+01dB,-8.52930164176676e+01Ḟ)
7.94328234724293e+03	(-3.55954926841173e+01dB,-8.54787266592162e+01Ḟ)
8.31763771102683e+03	(-3.59794893358620e+01dB,-8.56593263031229e+01Ḟ)
8.70963589956093e+03	(-3.63642606690397e+01dB,-8.58347010377543e+01Ḟ)
9.12010839355923e+03	(-3.67497167708729e+01dB,-8.60047748082103e+01Ḟ)
9.54992586021450e+03	(-3.71357676748423e+01dB,-8.61695059084186e+01Ḟ)
1.00000000000001e+04	(-3.75223233973985e+01dB,-8.63288831979248e+01Ḟ)
1.04712854805092e+04	(-3.79092938751104e+01dB,-8.64829224920469e+01Ḟ)
1.09647819614320e+04	(-3.82965888104508e+01dB,-8.66316631598872e+01Ḟ)
1.14815362149690e+04	(-3.86841174335176e+01dB,-8.67751649527101e+01Ḟ)
1.20226443461743e+04	(-3.90717881859081e+01dB,-8.69135050753188e+01Ḟ)
1.25892541179419e+04	(-3.94595083317695e+01dB,-8.70467755050504e+01Ḟ)
1.31825673855643e+04	(-3.98471834997786e+01dB,-8.71750805568034e+01Ḟ)
1.38038426460291e+04	(-4.02347171584892e+01dB,-8.72985346876737e+01Ḟ)
1.44543977074595e+04	(-4.06220100261563e+01dB,-8.74172605312785e+01Ḟ)
1.51356124843623e+04	(-4.10089594147916e+01dB,-8.75313871494534e+01Ḟ)
1.58489319246114e+04	(-4.13954585068491e+01dB,-8.76410484873232e+01Ḟ)
1.65958690743759e+04	(-4.17813955615555e+01dB,-8.77463820169653e+01Ḟ)
1.73780082874940e+04	(-4.21666530464876e+01dB,-8.78475275545113e+01Ḟ)
1.81970085861001e+04	(-4.25511066885340e+01dB,-8.79446262356215e+01Ḟ)
1.90546071796328e+04	(-4.29346244368352e+01dB,-8.80378196347003e+01Ḟ)
1.99526231496891e+04	(-4.33170653286462e+01dB,-8.81272490138386e+01Ḟ)
2.08929613085407e+04	(-4.36982782472744e+01dB,-8.82130546882890e+01Ḟ)
2.18776162394959e+04	(-4.40781005592562e+01dB,-8.82953754961702e+01Ḟ)
2.29086765276781e+04	(-4.44563566157154e+01dB,-8.83743483610307e+01Ḟ)
2.39883291901953e+04	(-4.48328561003136e+01dB,-8.84501079369155e+01Ḟ)
2.51188643150962e+04	(-4.52073922032856e+01dB,-8.85227863265767e+01Ḟ)
2.63026799189542e+04	(-4.55797395976656e+01dB,-8.85925128643073e+01Ḟ)
2.75422870333821e+04	(-4.59496521898223e+01dB,-8.86594139560434e+01Ḟ)
2.88403150312665e+04	(-4.63168606117044e+01dB,-8.87236129699687e+01Ḟ)
3.01995172040207e+04	(-4.66810694165638e+01dB,-8.87852301720698e+01Ḟ)
3.16227766016843e+04	(-4.70419539331499e+01dB,-8.88443827015724e+01Ḟ)
3.31131121482597e+04	(-4.73991567251721e+01dB,-8.89011845823766e+01Ḟ)
3.46736850452537e+04	(-4.77522835928407e+01dB,-8.89557467669617e+01Ḟ)
3.63078054770107e+04	(-4.81008990410473e+01dB,-8.90081772105032e+01Ḟ)
3.80189396320568e+04	(-4.84445211236269e+01dB,-8.90585809733836e+01Ḟ)
3.98107170553504e+04	(-4.87826155543576e+01dB,-8.91070603513427e+01Ḟ)
4.16869383470342e+04	(-4.91145889518404e+01dB,-8.91537150334188e+01Ḟ)
4.36515832240173e+04	(-4.94397810557640e+01dB,-8.91986422889012e+01Ḟ)
4.57088189614883e+04	(-4.97574557144207e+01dB,-8.92419371857064e+01Ḟ)
4.78630092322647e+04	(-5.00667903951390e+01dB,-8.92836928443664e+01Ḟ)
5.01187233627281e+04	(-5.03668639070655e+01dB,-8.93240007334326e+01Ḟ)
5.24807460249782e+04	(-5.06566419446332e+01dB,-8.93629510147965e+01Ḟ)
5.49540873857634e+04	(-5.09349599533571e+01dB,-8.94006329508280e+01Ḟ)
5.75439937337167e+04	(-5.12005026777689e+01dB,-8.94371353894538e+01Ḟ)
6.02559586074368e+04	(-5.14517795606622e+01dB,-8.94725473496178e+01Ḟ)
6.30957344480204e+04	(-5.16870949034889e+01dB,-8.95069587383561e+01Ḟ)
6.60693448007608e+04	(-5.19045113404166e+01dB,-8.95404612427329e+01Ḟ)
6.91830970918949e+04	(-5.21018046792279e+01dB,-8.95731494582903e+01Ḟ)
7.24435960075003e+04	(-5.22764074538110e+01dB,-8.96051223419142e+01Ḟ)
7.58577575029197e+04	(-5.24253375110282e+01dB,-8.96364851175940e+01Ḟ)
7.94328234724296e+04	(-5.25451064533334e+01dB,-8.96673518253933e+01Ḟ)
8.31763771102686e+04	(-5.26316005078712e+01dB,-8.96978488020063e+01Ḟ)
8.70963589956096e+04	(-5.26799229428536e+01dB,-8.97281195398756e+01Ḟ)
9.12010839355926e+04	(-5.26841817303250e+01dB,-8.97583316362438e+01Ḟ)
9.54992586021453e+04	(-5.26371973921204e+01dB,-8.97886869972167e+01Ḟ)
1.00000000000002e+05	(-5.25300913482338e+01dB,-8.98194372718940e+01Ḟ)
1.04712854805092e+05	(-5.23516898008646e+01dB,-8.98509079936871e+01Ḟ)
1.09647819614321e+05	(-5.20876325756128e+01dB,-8.98835378324944e+01Ḟ)
1.14815362149690e+05	(-5.17189899306386e+01dB,-8.99179453853166e+01Ḟ)
1.20226443461744e+05	(-5.12200168214982e+01dB,-8.99550491885117e+01Ḟ)
1.25892541179419e+05	(-5.05543001881543e+01dB,-8.99962982509291e+01Ḟ)
1.31825673855643e+05	(-4.96676754273293e+01dB,-9.00441537905351e+01Ḟ)
1.38038426460291e+05	(-4.84739750490007e+01dB,-9.01032131385715e+01Ḟ)
1.44543977074595e+05	(-4.68226055155563e+01dB,-9.01832613221484e+01Ḟ)
1.51356124843624e+05	(-4.44102027086200e+01dB,-9.03096555843902e+01Ḟ)
1.58489319246114e+05	(-4.04556861289318e+01dB,-9.05753477907570e+01Ḟ)
1.65958690743759e+05	(-3.13365837955374e+01dB,-9.18216780042468e+01Ḟ)
1.73780082874941e+05	(-3.19076050420108e+01dB,9.17891422209321e+01Ḟ)
1.81970085861002e+05	(-4.18010228711854e+01dB,9.05674161083088e+01Ḟ)
1.90546071796328e+05	(-4.65884163329878e+01dB,9.03022773453764e+01Ḟ)
1.99526231496892e+05	(-4.98202867766571e+01dB,9.01741454087196e+01Ḟ)
2.08929613085408e+05	(-5.22603240161376e+01dB,9.00910985940301e+01Ḟ)
2.18776162394960e+05	(-5.41984927525894e+01dB,9.00278326583872e+01Ḟ)
2.29086765276782e+05	(-5.57716662160157e+01dB,8.99743956046452e+01Ḟ)
2.39883291901954e+05	(-5.70506141828122e+01dB,8.99258882936436e+01Ḟ)
2.51188643150963e+05	(-5.80713934595952e+01dB,8.98793964550212e+01Ḟ)
2.63026799189543e+05	(-5.88483508661264e+01dB,8.98328044841316e+01Ḟ)
2.75422870333822e+05	(-5.93794046672071e+01dB,8.97841953059610e+01Ḟ)
2.88403150312666e+05	(-5.96470562954606e+01dB,8.97313999518205e+01Ḟ)
3.01995172040208e+05	(-5.96158225580822e+01dB,8.96714462784227e+01Ḟ)
3.16227766016844e+05	(-5.92247847322388e+01dB,8.95995703133969e+01Ḟ)
3.31131121482598e+05	(-5.83705460511044e+01dB,8.95069595000270e+01Ḟ)
3.46736850452539e+05	(-5.68660461043519e+01dB,8.93744287645861e+01Ḟ)
3.63078054770109e+05	(-5.43214461679234e+01dB,8.91493187131047e+01Ḟ)
3.80189396320569e+05	(-4.96562377594532e+01dB,8.86113760475895e+01Ḟ)
3.98107170553505e+05	(-3.58050927441640e+01dB,8.39796652926520e+01Ḟ)
4.16869383470344e+05	(-4.54300851626763e+01dB,-8.84632762736006e+01Ḟ)
4.36515832240175e+05	(-5.22847675172081e+01dB,-8.95763406149440e+01Ḟ)
4.57088189614884e+05	(-5.52044739208570e+01dB,-8.99273981968398e+01Ḟ)
4.78630092322648e+05	(-5.61154181812808e+01dB,-9.01453998518410e+01Ḟ)
