Freq.	V(n028)
Step Information: Run=1  (Step: 1/100)
1.00000000000000e+00	(-1.38264693624832e-01dB,-5.44967212080857e-01°)
1.04712854805090e+00	(-1.38302699702749e-01dB,-5.70649058611861e-01°)
1.09647819614319e+00	(-1.38344372156293e-01dB,-5.97541006343644e-01°)
1.14815362149688e+00	(-1.38390064633358e-01dB,-6.25700049009207e-01°)
1.20226443461741e+00	(-1.38440164885517e-01dB,-6.55185860956118e-01°)
1.25892541179417e+00	(-1.38495098055466e-01dB,-6.86060922676510e-01°)
1.31825673855641e+00	(-1.38555330279802e-01dB,-7.18390652136323e-01°)
1.38038426460289e+00	(-1.38621372640497e-01dB,-7.52243542157088e-01°)
1.44543977074593e+00	(-1.38693785494579e-01dB,-7.87691304113709e-01°)
1.51356124843621e+00	(-1.38773183222448e-01dB,-8.24809018226941e-01°)
1.58489319246111e+00	(-1.38860239431540e-01dB,-8.63675290736343e-01°)
1.65958690743756e+00	(-1.38955692660880e-01dB,-9.04372418233861e-01°)
1.73780082874938e+00	(-1.39060352634285e-01dB,-9.46986559479793e-01°)
1.81970085860999e+00	(-1.39175107114153e-01dB,-9.91607915001211e-01°)
1.90546071796325e+00	(-1.39300929414087e-01dB,-1.03833091479481e+00°)
1.99526231496888e+00	(-1.39438886632800e-01dB,-1.08725441446901e+00°)
2.08929613085404e+00	(-1.39590148678361e-01dB,-1.13848190015274e+00°)
2.18776162394956e+00	(-1.39755998157665e-01dB,-1.19212170252698e+00°)
2.29086765276778e+00	(-1.39937841216385e-01dB,-1.24828722031728e+00°)
2.39883291901949e+00	(-1.40137219414027e-01dB,-1.30709715360879e+00°)
2.51188643150958e+00	(-1.40355822740469e-01dB,-1.36867574733719e+00°)
2.63026799189539e+00	(-1.40595503874827e-01dB,-1.43315304531889e+00°)
2.75422870333817e+00	(-1.40858293809524e-01dB,-1.50066515518026e+00°)
2.88403150312661e+00	(-1.41146418967160e-01dB,-1.57135452452737e+00°)
3.01995172040202e+00	(-1.41462319950780e-01dB,-1.64537022872420e+00°)
3.16227766016839e+00	(-1.41808672082103e-01dB,-1.72286827060592e+00°)
3.31131121482592e+00	(-1.42188407896349e-01dB,-1.80401189245023e+00°)
3.46736850452532e+00	(-1.42604741776697e-01dB,-1.88897190051744e+00°)
3.63078054770102e+00	(-1.43061196928877e-01dB,-1.97792700243231e+00°)
3.80189396320562e+00	(-1.43561634914389e-01dB,-2.07106415765799e+00°)
3.98107170553498e+00	(-1.44110287981331e-01dB,-2.16857894125986e+00°)
4.16869383470336e+00	(-1.44711794448862e-01dB,-2.27067592112919e+00°)
4.36515832240167e+00	(-1.45371237432546e-01dB,-2.37756904874074e+00°)
4.57088189614876e+00	(-1.46094187212793e-01dB,-2.48948206348352e+00°)
4.78630092322640e+00	(-1.46886747581744e-01dB,-2.60664891048940e+00°)
5.01187233627274e+00	(-1.47755606530789e-01dB,-2.72931417178198e+00°)
5.24807460249774e+00	(-1.48708091670045e-01dB,-2.85773351046569e+00°)
5.49540873857626e+00	(-1.49752230805870e-01dB,-2.99217412749517e+00°)
5.75439937337159e+00	(-1.50896818135974e-01dB,-3.13291523042510e+00°)
6.02559586074359e+00	(-1.52151486557647e-01dB,-3.28024851332243e+00°)
6.30957344480195e+00	(-1.53526786626849e-01dB,-3.43447864679396e+00°)
6.60693448007598e+00	(-1.55034272742267e-01dB,-3.59592377681968e+00°)
6.91830970918939e+00	(-1.56686597176017e-01dB,-3.76491603075673e+00°)
7.24435960074992e+00	(-1.58497612613164e-01dB,-3.94180202853021e+00°)
7.58577575029186e+00	(-1.60482483910424e-01dB,-4.12694339660774e+00°)
7.94328234724284e+00	(-1.62657809830003e-01dB,-4.32071728187840e+00°)
8.31763771102674e+00	(-1.65041755552585e-01dB,-4.52351686201266e+00°)
8.70963589956084e+00	(-1.67654196818146e-01dB,-4.73575184826280e+00°)
9.12010839355913e+00	(-1.70516876591811e-01dB,-4.95784897594934e+00°)
9.54992586021439e+00	(-1.73653575190054e-01dB,-5.19025247708373e+00°)
1.00000000000000e+01	(-1.77090294848202e-01dB,-5.43342452866385e+00°)
1.04712854805090e+01	(-1.80855459732389e-01dB,-5.68784566916571e+00°)
1.09647819614319e+01	(-1.84980132439590e-01dB,-5.95401517458448e+00°)
1.14815362149689e+01	(-1.89498248024709e-01dB,-6.23245138411256e+00°)
1.20226443461742e+01	(-1.94446866612010e-01dB,-6.52369196408584e+00°)
1.25892541179417e+01	(-1.99866445616353e-01dB,-6.82829409724071e+00°)
1.31825673855641e+01	(-2.05801132568099e-01dB,-7.14683458256133e+00°)
1.38038426460289e+01	(-2.12299079465480e-01dB,-7.47990982904344e+00°)
1.44543977074593e+01	(-2.19412779473350e-01dB,-7.82813572460210e+00°)
1.51356124843621e+01	(-2.27199426650295e-01dB,-8.19214735903069e+00°)
1.58489319246112e+01	(-2.35721299187018e-01dB,-8.57259857746529e+00°)
1.65958690743757e+01	(-2.45046166393146e-01dB,-8.97016133816364e+00°)
1.73780082874938e+01	(-2.55247719345691e-01dB,-9.38552484564909e+00°)
1.81970085860999e+01	(-2.66406024713838e-01dB,-9.81939442739182e+00°)
1.90546071796326e+01	(-2.78608000778955e-01dB,-1.02724901192815e+01°)
1.99526231496889e+01	(-2.91947914066813e-01dB,-1.07455449222377e+01°)
2.08929613085405e+01	(-3.06527894295350e-01dB,-1.12393026894990e+01°)
2.18776162394956e+01	(-3.22458464473947e-01dB,-1.17545156015707e+01°)
2.29086765276778e+01	(-3.39859082004585e-01dB,-1.22919411835873e+01°)
2.39883291901950e+01	(-3.58858685460197e-01dB,-1.28523388182200e+01°)
2.51188643150959e+01	(-3.79596240395889e-01dB,-1.34364657063779e+01°)
2.63026799189540e+01	(-4.02221276050412e-01dB,-1.40450722281158e+01°)
2.75422870333818e+01	(-4.26894403115564e-01dB,-1.46788966576983e+01°)
2.88403150312662e+01	(-4.53787800927282e-01dB,-1.53386591899651e+01°)
3.01995172040203e+01	(-4.83085660452987e-01dB,-1.60250552404558e+01°)
3.16227766016840e+01	(-5.14984567371298e-01dB,-1.67387479895540e+01°)
3.31131121482593e+01	(-5.49693807398264e-01dB,-1.74803601516624e+01°)
3.46736850452534e+01	(-5.87435573893488e-01dB,-1.82504649645434e+01°)
3.63078054770103e+01	(-6.28445055758252e-01dB,-1.90495764118565e+01°)
3.80189396320563e+01	(-6.72970381843814e-01dB,-1.98781387139349e+01°)
3.98107170553500e+01	(-7.21272396664690e-01dB,-2.07365151481469e+01°)
4.16869383470338e+01	(-7.73624241323014e-01dB,-2.16249762908568e+01°)
4.36515832240169e+01	(-8.30310713391236e-01dB,-2.25436878077890e+01°)
4.57088189614878e+01	(-8.91627380283276e-01dB,-2.34926979580017e+01°)
4.78630092322641e+01	(-9.57879422577759e-01dB,-2.44719250177822e+01°)
5.01187233627275e+01	(-1.02938018704908e+00dB,-2.54811448732479e+01°)
5.24807460249776e+01	(-1.10644943399752e+00dB,-2.65199790724397e+01°)
5.49540873857628e+01	(-1.18941126997429e+00dB,-2.75878836669279e+01°)
5.75439937337161e+01	(-1.27859176522953e+00dB,-2.86841392066372e+01°)
6.02559586074362e+01	(-1.37431626512104e+00dB,-2.98078422766383e+01°)
6.30957344480197e+01	(-1.47690641613621e+00dB,-3.09578989777118e+01°)
6.60693448007600e+01	(-1.58667693976939e+00dB,-3.21330207503089e+01°)
6.91830970918941e+01	(-1.70393220078435e+00dB,-3.33317229211478e+01°)
7.24435960074995e+01	(-1.82896262972348e+00dB,-3.45523263108572e+01°)
7.58577575029189e+01	(-1.96204107214166e+00dB,-3.57929621785500e+01°)
7.94328234724287e+01	(-2.10341914805655e+00dB,-3.70515806951645e+01°)
8.31763771102677e+01	(-2.25332371361946e+00dB,-3.83259630336521e+01°)
8.70963589956087e+01	(-2.41195352216982e+00dB,-3.96137370441772e+01°)
9.12010839355916e+01	(-2.57947618289103e+00dB,-4.09123963518314e+01°)
9.54992586021443e+01	(-2.75602551175368e+00dB,-4.22193225797573e+01°)
1.00000000000001e+02	(-2.94169936108015e+00dB,-4.35318102699965e+01°)
1.04712854805091e+02	(-3.13655800104768e+00dB,-4.48470939561936e+01°)
1.09647819614319e+02	(-3.34062310926420e+00dB,-4.61623767446003e+01°)
1.14815362149689e+02	(-3.55387740408250e+00dB,-4.74748596895684e+01°)
1.20226443461742e+02	(-3.77626493469637e+00dB,-4.87817712121803e+01°)
1.25892541179418e+02	(-4.00769201766017e+00dB,-5.00803958085594e+01°)
1.31825673855642e+02	(-4.24802878669076e+00dB,-5.13681013279713e+01°)
1.38038426460290e+02	(-4.49711130182494e+00dB,-5.26423641675061e+01°)
1.44543977074594e+02	(-4.75474414639859e+00dB,-5.39007918249698e+01°)
1.51356124843622e+02	(-5.02070342677504e+00dB,-5.51411423678363e+01°)
1.58489319246113e+02	(-5.29474008085103e+00dB,-5.63613405056786e+01°)
1.65958690743757e+02	(-5.57658339727568e+00dB,-5.75594900880535e+01°)
1.73780082874939e+02	(-5.86594464787219e+00dB,-5.87338829813139e+01°)
1.81970085861000e+02	(-6.16252074045963e+00dB,-5.98830043992828e+01°)
1.90546071796326e+02	(-6.46599780744791e+00dB,-6.10055348685512e+01°)
1.99526231496890e+02	(-6.77605465634161e+00dB,-6.21003490956358e+01°)
2.08929613085406e+02	(-7.09236602076920e+00dB,-6.31665120682549e+01°)
2.18776162394957e+02	(-7.41460556394193e+00dB,-6.42032727662995e+01°)
2.29086765276779e+02	(-7.74244859977492e+00dB,-6.52100558807131e+01°)
2.39883291901951e+02	(-8.07557450960019e+00dB,-6.61864519426391e+01°)
2.51188643150960e+02	(-8.41366884396954e+00dB,-6.71322062537317e+01°)
2.63026799189540e+02	(-8.75642510913988e+00dB,-6.80472069847073e+01°)
2.75422870333819e+02	(-9.10354624626303e+00dB,-6.89314727763423e+01°)
2.88403150312663e+02	(-9.45474581800407e+00dB,-6.97851401384018e+01°)
3.01995172040204e+02	(-9.80974892233046e+00dB,-7.06084509001578e+01°)
3.16227766016841e+02	(-1.01682928566795e+01dB,-7.14017399236423e+01°)
3.31131121482594e+02	(-1.05301275577851e+01dB,-7.21654232494411e+01°)
3.46736850452535e+02	(-1.08950158433505e+01dB,-7.28999868060570e+01°)
3.63078054770105e+02	(-1.12627334816868e+01dB,-7.36059757786421e+01°)
3.80189396320565e+02	(-1.16330691146240e+01dB,-7.42839847017361e+01°)
3.98107170553501e+02	(-1.20058240576246e+01dB,-7.49346483138376e+01°)
4.16869383470339e+02	(-1.23808119992671e+01dB,-7.55586331891400e+01°)
4.36515832240170e+02	(-1.27578586202643e+01dB,-7.61566301434234e+01°)
4.57088189614879e+02	(-1.31368011500588e+01dB,-7.67293473965382e+01°)
4.78630092322643e+02	(-1.35174878768951e+01dB,-7.72775044628292e+01°)
5.01187233627277e+02	(-1.38997776251674e+01dB,-7.78018267327182e+01°)
5.24807460249778e+02	(-1.42835392118539e+01dB,-7.83030407031195e+01°)
5.49540873857630e+02	(-1.46686508919884e+01dB,-7.87818698109275e+01°)
5.75439937337163e+02	(-1.50549998014245e+01dB,-7.92390308221563e+01°)
6.02559586074364e+02	(-1.54424814036232e+01dB,-7.96752307290042e+01°)
6.30957344480200e+02	(-1.58309989458360e+01dB,-8.00911641079218e+01°)
6.60693448007603e+02	(-1.62204629288727e+01dB,-8.04875108933507e+01°)
6.91830970918944e+02	(-1.66107905936128e+01dB,-8.08649345239873e+01°)
7.24435960074998e+02	(-1.70019054265410e+01dB,-8.12240804210068e+01°)
7.58577575029192e+02	(-1.73937366858412e+01dB,-8.15655747605113e+01°)
7.94328234724290e+02	(-1.77862189489607e+01dB,-8.18900235054159e+01°)
8.31763771102680e+02	(-1.81792916820395e+01dB,-8.21980116649798e+01°)
8.70963589956090e+02	(-1.85728988311768e+01dB,-8.24901027531397e+01°)
9.12010839355920e+02	(-1.89669884351644e+01dB,-8.27668384196719e+01°)
9.54992586021446e+02	(-1.93615122590503e+01dB,-8.30287382309529e+01°)
1.00000000000001e+03	(-1.97564254476767e+01dB,-8.32762995796936e+01°)
1.04712854805091e+03	(-2.01516861981817e+01dB,-8.35099977054671e+01°)
1.09647819614320e+03	(-2.05472554503305e+01dB,-8.37302858101366e+01°)
1.14815362149690e+03	(-2.09430965934553e+01dB,-8.39375952544208e+01°)
1.20226443461743e+03	(-2.13391751887313e+01dB,-8.41323358238058e+01°)
1.25892541179418e+03	(-2.17354587054764e+01dB,-8.43148960538508e+01°)
1.31825673855642e+03	(-2.21319162701517e+01dB,-8.44856436066303e+01°)
1.38038426460290e+03	(-2.25285184267416e+01dB,-8.46449256916466e+01°)
1.44543977074594e+03	(-2.29252369071985e+01dB,-8.47930695260208e+01°)
1.51356124843623e+03	(-2.33220444106744e+01dB,-8.49303828301657e+01°)
1.58489319246113e+03	(-2.37189143902796e+01dB,-8.50571543564597e+01°)
1.65958690743758e+03	(-2.41158208461648e+01dB,-8.51736544497006e+01°)
1.73780082874940e+03	(-2.45127381237601e+01dB,-8.52801356393281e+01°)
1.81970085861001e+03	(-2.49096407160716e+01dB,-8.53768332645854e+01°)
1.90546071796327e+03	(-2.53065030689955e+01dB,-8.54639661349499e+01°)
1.99526231496890e+03	(-2.57032993886910e+01dB,-8.55417372293117e+01°)
2.08929613085406e+03	(-2.61000034501371e+01dB,-8.56103344385304e+01°)
2.18776162394958e+03	(-2.64965884061032e+01dB,-8.56699313571543e+01°)
2.29086765276780e+03	(-2.68930265958798e+01dB,-8.57206881312550e+01°)
2.39883291901952e+03	(-2.72892893532556e+01dB,-8.57627523705098e+01°)
2.51188643150961e+03	(-2.76853468133866e+01dB,-8.57962601338490e+01°)
2.63026799189541e+03	(-2.80811677183962e+01dB,-8.58213369991783e+01°)
2.75422870333820e+03	(-2.84767192217655e+01dB,-8.58380992288595e+01°)
2.88403150312664e+03	(-2.88719666918363e+01dB,-8.58466550437726e+01°)
3.01995172040205e+03	(-2.92668735150515e+01dB,-8.58471060198627e+01°)
3.16227766016842e+03	(-2.96614008999175e+01dB,-8.58395486220371e+01°)
3.31131121482595e+03	(-3.00555076830787e+01dB,-8.58240758910886e+01°)
3.46736850452536e+03	(-3.04491501393695e+01dB,-8.58007792998978e+01°)
3.63078054770106e+03	(-3.08422817982479e+01dB,-8.57697507954213e+01°)
3.80189396320566e+03	(-3.12348532696214e+01dB,-8.57310850428130e+01°)
3.98107170553503e+03	(-3.16268120827586e+01dB,-8.56848818873041e+01°)
4.16869383470341e+03	(-3.20181025427287e+01dB,-8.56312490480573e+01°)
4.36515832240172e+03	(-3.24086656096289e+01dB,-8.55703050559137e+01°)
4.57088189614881e+03	(-3.27984388067303e+01dB,-8.55021824435975e+01°)
4.78630092322645e+03	(-3.31873561645832e+01dB,-8.54270311922985e+01°)
5.01187233627279e+03	(-3.35753482090392e+01dB,-8.53450224323993e+01°)
5.24807460249780e+03	(-3.39623420020474e+01dB,-8.52563523882188e+01°)
5.49540873857632e+03	(-3.43482612449024e+01dB,-8.51612465467758e+01°)
5.75439937337165e+03	(-3.47330264543024e+01dB,-8.50599640185558e+01°)
6.02559586074366e+03	(-3.51165552220486e+01dB,-8.49528020439326e+01°)
6.30957344480202e+03	(-3.54987625693714e+01dB,-8.48401005822126e+01°)
6.60693448007605e+03	(-3.58795614066042e+01dB,-8.47222469012993e+01°)
6.91830970918946e+03	(-3.62588631081095e+01dB,-8.45996800649581e+01°)
7.24435960075000e+03	(-3.66365782108715e+01dB,-8.44728951920563e+01°)
7.58577575029195e+03	(-3.70126172428467e+01dB,-8.43424473386969e+01°)
7.94328234724293e+03	(-3.73868916839003e+01dB,-8.42089548308846e+01°)
8.31763771102683e+03	(-3.77593150578268e+01dB,-8.40731018536708e+01°)
8.70963589956093e+03	(-3.81298041484891e+01dB,-8.39356400843451e+01°)
9.12010839355923e+03	(-3.84982803265050e+01dB,-8.37973891442799e+01°)
9.54992586021450e+03	(-3.88646709652221e+01dB,-8.36592356388396e+01°)
1.00000000000001e+04	(-3.92289109161208e+01dB,-8.35221305598520e+01°)
1.04712854805092e+04	(-3.95909440045755e+01dB,-8.33870848429868e+01°)
1.09647819614320e+04	(-3.99507244974851e+01dB,-8.32551629051986e+01°)
1.14815362149690e+04	(-4.03082184852493e+01dB,-8.31274740368091e+01°)
1.20226443461743e+04	(-4.06634051125651e+01dB,-8.30051615895340e+01°)
1.25892541179419e+04	(-4.10162775863514e+01dB,-8.28893899852810e+01°)
1.31825673855643e+04	(-4.13668438855632e+01dB,-8.27813296687647e+01°)
1.38038426460291e+04	(-4.17151270975131e+01dB,-8.26821402360963e+01°)
1.44543977074595e+04	(-4.20611653092219e+01dB,-8.25929520858781e+01°)
1.51356124843623e+04	(-4.24050109906767e+01dB,-8.25148470517613e+01°)
1.58489319246114e+04	(-4.27467298198102e+01dB,-8.24488385774761e+01°)
1.65958690743759e+04	(-4.30863989162112e+01dB,-8.23958520780188e+01°)
1.73780082874940e+04	(-4.34241044713314e+01dB,-8.23567061853274e+01°)
1.81970085861001e+04	(-4.37599387860999e+01dB,-8.23320955959500e+01°)
1.90546071796328e+04	(-4.40939967508768e+01dB,-8.23225762167815e+01°)
1.99526231496891e+04	(-4.44263718257905e+01dB,-8.23285532408070e+01°)
2.08929613085407e+04	(-4.47571515998294e+01dB,-8.23502726795084e+01°)
2.18776162394959e+04	(-4.50864130228244e+01dB,-8.23878167375092e+01°)
2.29086765276781e+04	(-4.54142174141361e+01dB,-8.24411032469295e+01°)
2.39883291901953e+04	(-4.57406053544187e+01dB,-8.25098891953808e+01°)
2.51188643150962e+04	(-4.60655915617545e+01dB,-8.25937781956337e+01°)
2.63026799189542e+04	(-4.63891598408721e+01dB,-8.26922315701390e+01°)
2.75422870333821e+04	(-4.67112581747579e+01dB,-8.28045825720140e+01°)
2.88403150312665e+04	(-4.70317940029466e+01dB,-8.29300531457102e+01°)
3.01995172040207e+04	(-4.73506297016002e+01dB,-8.30677725519902e+01°)
3.16227766016843e+04	(-4.76675782487942e+01dB,-8.32167971459509e+01°)
3.31131121482597e+04	(-4.79823990257362e+01dB,-8.33761306028523e+01°)
3.46736850452537e+04	(-4.82947936722120e+01dB,-8.35447439302617e+01°)
3.63078054770107e+04	(-4.86044018831837e+01dB,-8.37215946798590e+01°)
3.80189396320568e+04	(-4.89107970034368e+01dB,-8.39056448698383e+01°)
3.98107170553504e+04	(-4.92134812481192e+01dB,-8.40958772403130e+01°)
4.16869383470342e+04	(-4.95118803479263e+01dB,-8.42913095808211e+01°)
4.36515832240173e+04	(-4.98053373868571e+01dB,-8.44910069834502e+01°)
4.57088189614883e+04	(-5.00931055654718e+01dB,-8.46940919811762e+01°)
4.78630092322647e+04	(-5.03743395801812e+01dB,-8.48997526246553e+01°)
5.01187233627281e+04	(-5.06480852550665e+01dB,-8.51072486295679e+01°)
5.24807460249782e+04	(-5.09132669915626e+01dB,-8.53159157903544e+01°)
5.49540873857634e+04	(-5.11686725057197e+01dB,-8.55251689058413e+01°)
5.75439937337167e+04	(-5.14129341927734e+01dB,-8.57345035005529e+01°)
6.02559586074368e+04	(-5.16445062805873e+01dB,-8.59434966562857e+01°)
6.30957344480204e+04	(-5.18616366874756e+01dB,-8.61518072969673e+01°)
6.60693448007608e+04	(-5.20623321572120e+01dB,-8.63591763028318e+01°)
6.91830970918949e+04	(-5.22443147618352e+01dB,-8.65654268765092e+01°)
7.24435960075003e+04	(-5.24049671759659e+01dB,-8.67704656566497e+01°)
7.58577575029197e+04	(-5.25412631335917e+01dB,-8.69742851932627e+01°)
7.94328234724296e+04	(-5.26496780190891e+01dB,-8.71769685932416e+01°)
8.31763771102686e+04	(-5.27260723580511e+01dB,-8.73786974646322e+01°)
8.70963589956096e+04	(-5.27655376262403e+01dB,-8.75797648208000e+01°)
9.12010839355926e+04	(-5.27621885432155e+01dB,-8.77805955064425e+01°)
9.54992586021453e+04	(-5.27088775463916e+01dB,-8.79817782680797e+01°)
1.00000000000002e+05	(-5.25967930430004e+01dB,-8.81841163800732e+01°)
1.04712854805092e+05	(-5.24148787157687e+01dB,-8.83887089125745e+01°)
1.09647819614321e+05	(-5.21489674239707e+01dB,-8.85970847813455e+01°)
1.14815362149690e+05	(-5.17804406955426e+01dB,-8.88114323419210e+01°)
1.20226443461744e+05	(-5.12840597809444e+01dB,-8.90350124464648e+01°)
1.25892541179419e+05	(-5.06242605679018e+01dB,-8.92729499317971e+01°)
1.31825673855643e+05	(-4.97483785829506e+01dB,-8.95338786564125e+01°)
1.38038426460291e+05	(-4.85731169005714e+01dB,-8.98337475941347e+01°)
1.44543977074595e+05	(-4.69540721502282e+01dB,-9.02060289181154e+01°)
1.51356124843624e+05	(-4.46039985403725e+01dB,-9.07357917912129e+01°)
1.58489319246114e+05	(-4.08007101900869e+01dB,-9.17243020798729e+01°)
1.65958690743759e+05	(-3.24399018202811e+01dB,-9.55927923804752e+01°)
1.73780082874941e+05	(-3.06692433694017e+01dB,9.74824361049149e+01°)
1.81970085861002e+05	(-4.13501518884712e+01dB,9.21164357403122e+01°)
1.90546071796328e+05	(-4.62921450233084e+01dB,9.09976904092618e+01°)
1.99526231496892e+05	(-4.95882695584677e+01dB,9.04176938758551e+01°)
2.08929613085408e+05	(-5.20625215954914e+01dB,9.00074059358141e+01°)
2.18776162394960e+05	(-5.40212319275779e+01dB,8.96679168323716e+01°)
2.29086765276782e+05	(-5.56075062694494e+01dB,8.93602832533889e+01°)
2.39883291901954e+05	(-5.68949549197133e+01dB,8.90647191632979e+01°)
2.51188643150963e+05	(-5.79210528994392e+01dB,8.87685573019930e+01°)
2.63026799189543e+05	(-5.87008512993293e+01dB,8.84614767456409e+01°)
2.75422870333822e+05	(-5.92325343115697e+01dB,8.81328291589933e+01°)
2.88403150312666e+05	(-5.94985130339541e+01dB,8.77692147921857e+01°)
3.01995172040208e+05	(-5.94628043690462e+01dB,8.73509831578482e+01°)
3.16227766016844e+05	(-5.90633467508514e+01dB,8.68454434005138e+01°)
3.31131121482598e+05	(-5.81943338528742e+01dB,8.61908919197996e+01°)
3.46736850452539e+05	(-5.66632856078404e+01dB,8.52511459735654e+01°)
3.63078054770109e+05	(-5.40660952004758e+01dB,8.36467433475440e+01°)
3.80189396320569e+05	(-4.92732724658246e+01dB,7.97483543520086e+01°)
3.98107170553505e+05	(-3.58515013536604e+01dB,4.54502910663924e+01°)
4.16869383470344e+05	(-4.62725454833100e+01dB,-8.13311643923907e+01°)
4.36515832240175e+05	(-5.26348600304059e+01dB,-8.80138414797628e+01°)
4.57088189614884e+05	(-5.54604939340262e+01dB,-9.03536275381817e+01°)
4.78630092322648e+05	(-5.63702336505114e+01dB,-9.19189196943479e+01°)
