Freq.	V(n016)
Step Information: Run=1  (Step: 1/100)
1.00000000000000e+00	(-1.37927416963731e-01dB,-5.07340194860138e-01Ḟ)
1.04712854805090e+00	(-1.37965219144177e-01dB,-5.31248626060920e-01Ḟ)
1.09647819614319e+00	(-1.38006667981254e-01dB,-5.56283563881327e-01Ḟ)
1.14815362149688e+00	(-1.38052115211003e-01dB,-5.82498059979850e-01Ḟ)
1.20226443461741e+00	(-1.38101946486869e-01dB,-6.09947660491795e-01Ḟ)
1.25892541179417e+00	(-1.38156584647942e-01dB,-6.38690522737373e-01Ḟ)
1.31825673855641e+00	(-1.38216493303140e-01dB,-6.68787537299150e-01Ḟ)
1.38038426460289e+00	(-1.38282180758576e-01dB,-7.00302455712588e-01Ḟ)
1.44543977074593e+00	(-1.38354204324402e-01dB,-7.33302024004592e-01Ḟ)
1.51356124843621e+00	(-1.38433175035053e-01dB,-7.67856122335426e-01Ḟ)
1.58489319246111e+00	(-1.38519762823017e-01dB,-8.04037911003068e-01Ḟ)
1.65958690743756e+00	(-1.38614702191437e-01dB,-8.41923983075613e-01Ḟ)
1.73780082874938e+00	(-1.38718798429853e-01dB,-8.81594523923769e-01Ḟ)
1.81970085860999e+00	(-1.38832934428909e-01dB,-9.23133477948051e-01Ḟ)
1.90546071796325e+00	(-1.38958078148156e-01dB,-9.66628722777182e-01Ḟ)
1.99526231496888e+00	(-1.39095290800938e-01dB,-1.01217225123613e+00Ḟ)
2.08929613085404e+00	(-1.39245735824724e-01dB,-1.05986036139558e+00Ḟ)
2.18776162394956e+00	(-1.39410688710620e-01dB,-1.10979385499541e+00Ḟ)
2.29086765276778e+00	(-1.39591547775953e-01dB,-1.16207824456061e+00Ḟ)
2.39883291901949e+00	(-1.39789845966976e-01dB,-1.21682396952285e+00Ḟ)
2.51188643150958e+00	(-1.40007263791921e-01dB,-1.27414662165157e+00Ḟ)
2.63026799189539e+00	(-1.40245643489988e-01dB,-1.33416718011401e+00Ḟ)
2.75422870333817e+00	(-1.40507004553224e-01dB,-1.39701225646937e+00Ḟ)
2.88403150312661e+00	(-1.40793560730824e-01dB,-1.46281434988709e+00Ḟ)
3.01995172040202e+00	(-1.41107738652973e-01dB,-1.53171211289945e+00Ḟ)
3.16227766016839e+00	(-1.41452198229102e-01dB,-1.60385062793084e+00Ḟ)
3.31131121482592e+00	(-1.41829854984391e-01dB,-1.67938169489922e+00Ḟ)
3.46736850452532e+00	(-1.42243904518329e-01dB,-1.75846413007393e+00Ḟ)
3.63078054770102e+00	(-1.42697849281345e-01dB,-1.84126407642930e+00Ḟ)
3.80189396320562e+00	(-1.43195527886325e-01dB,-1.92795532562759e+00Ḟ)
3.98107170553498e+00	(-1.43741147187524e-01dB,-2.01871965175174e+00Ḟ)
4.16869383470336e+00	(-1.44339317385412e-01dB,-2.11374715683902e+00Ḟ)
4.36515832240167e+00	(-1.44995090432073e-01dB,-2.21323662819881e+00Ḟ)
4.57088189614876e+00	(-1.45714002038437e-01dB,-2.31739590742331e+00Ḟ)
4.78630092322640e+00	(-1.46502117614536e-01dB,-2.42644227086992e+00Ḟ)
5.01187233627274e+00	(-1.47366082491582e-01dB,-2.54060282132886e+00Ḟ)
5.24807460249774e+00	(-1.48313176814960e-01dB,-2.66011489039816e+00Ḟ)
5.49540873857626e+00	(-1.49351375518682e-01dB,-2.78522645096868e+00Ḟ)
5.75439937337159e+00	(-1.50489413833646e-01dB,-2.91619653900809e+00Ḟ)
6.02559586074359e+00	(-1.51736858809689e-01dB,-3.05329568363126e+00Ḟ)
6.30957344480195e+00	(-1.53104187371807e-01dB,-3.19680634417960e+00Ḟ)
6.60693448007598e+00	(-1.54602871469556e-01dB,-3.34702335275085e+00Ḟ)
6.91830970918939e+00	(-1.56245470912921e-01dB,-3.50425436027499e+00Ḟ)
7.24435960074992e+00	(-1.58045734539446e-01dB,-3.66882028384919e+00Ḟ)
7.58577575029186e+00	(-1.60018710382214e-01dB,-3.84105575260328e+00Ḟ)
7.94328234724284e+00	(-1.62180865567734e-01dB,-4.02130954885317e+00Ḟ)
8.31763771102674e+00	(-1.64550216696735e-01dB,-4.20994504073068e+00Ḟ)
8.70963589956084e+00	(-1.67146471515489e-01dB,-4.40734060180729e+00Ḟ)
9.12010839355913e+00	(-1.69991182706000e-01dB,-4.61389001249498e+00Ḟ)
9.54992586021439e+00	(-1.73107914667932e-01dB,-4.83000283715970e+00Ḟ)
1.00000000000000e+01	(-1.76522424186897e-01dB,-5.05610476992277e+00Ḟ)
1.04712854805090e+01	(-1.80262855900504e-01dB,-5.29263794107007e+00Ḟ)
1.09647819614319e+01	(-1.84359953483548e-01dB,-5.54006117477958e+00Ḟ)
1.14815362149689e+01	(-1.88847287469084e-01dB,-5.79885018755306e+00Ḟ)
1.20226443461742e+01	(-1.93761500595816e-01dB,-6.06949771524488e+00Ḟ)
1.25892541179417e+01	(-1.99142571529367e-01dB,-6.35251355495867e+00Ḟ)
1.31825673855641e+01	(-2.05034097735965e-01dB,-6.64842450626720e+00Ḟ)
1.38038426460289e+01	(-2.11483598175481e-01dB,-6.95777419427330e+00Ḟ)
1.44543977074593e+01	(-2.18542836348169e-01dB,-7.28112275487441e+00Ḟ)
1.51356124843621e+01	(-2.26268164028101e-01dB,-7.61904636034231e+00Ḟ)
1.58489319246112e+01	(-2.34720885773580e-01dB,-7.97213656088097e+00Ḟ)
1.65958690743757e+01	(-2.43967643996414e-01dB,-8.34099941528302e+00Ḟ)
1.73780082874938e+01	(-2.54080823967572e-01dB,-8.72625438118346e+00Ḟ)
1.81970085860999e+01	(-2.65138977674947e-01dB,-9.12853293271341e+00Ḟ)
1.90546071796326e+01	(-2.77227264852718e-01dB,-9.54847687072760e+00Ḟ)
1.99526231496889e+01	(-2.90437908817645e-01dB,-9.98673628823974e+00Ḟ)
2.08929613085405e+01	(-3.04870663911782e-01dB,-1.04439671514067e+01Ḟ)
2.18776162394956e+01	(-3.20633290400154e-01dB,-1.09208284544595e+01Ḟ)
2.29086765276778e+01	(-3.37842031543684e-01dB,-1.14179789056134e+01Ḟ)
2.39883291901950e+01	(-3.56622086298276e-01dB,-1.19360731003626e+01Ḟ)
2.51188643150959e+01	(-3.77108069645492e-01dB,-1.24757571389746e+01Ḟ)
2.63026799189540e+01	(-3.99444450956335e-01dB,-1.30376636467155e+01Ḟ)
2.75422870333818e+01	(-4.23785959025436e-01dB,-1.36224061587275e+01Ḟ)
2.88403150312662e+01	(-4.50297940519008e-01dB,-1.42305728368937e+01Ḟ)
3.01995172040203e+01	(-4.79156656573080e-01dB,-1.48627194939168e+01Ḟ)
3.16227766016840e+01	(-5.10549500227668e-01dB,-1.55193619105933e+01Ḟ)
3.31131121482593e+01	(-5.44675115336362e-01dB,-1.62009674463596e+01Ḟ)
3.46736850452534e+01	(-5.81743395650548e-01dB,-1.69079459610139e+01Ḟ)
3.63078054770103e+01	(-6.21975341056507e-01dB,-1.76406400873948e+01Ḟ)
3.80189396320563e+01	(-6.65602746586708e-01dB,-1.83993149210102e+01Ḟ)
3.98107170553500e+01	(-7.12867698990845e-01dB,-1.91841472231711e+01Ḟ)
4.16869383470338e+01	(-7.64021855545520e-01dB,-1.99952142689661e+01Ḟ)
4.36515832240169e+01	(-8.19325480602009e-01dB,-2.08324825099217e+01Ḟ)
4.57088189614878e+01	(-8.79046217348509e-01dB,-2.16957962625999e+01Ḟ)
4.78630092322641e+01	(-9.43457575603392e-01dB,-2.25848666774197e+01Ḟ)
5.01187233627275e+01	(-1.01283712137641e+00dB,-2.34992612848211e+01Ḟ)
5.24807460249776e+01	(-1.08746436055257e+00dB,-2.44383944563541e+01Ḟ)
5.49540873857628e+01	(-1.16761831749817e+00dB,-2.54015191534674e+01Ḟ)
5.75439937337161e+01	(-1.25357481958953e+00dB,-2.63877203636531e+01Ḟ)
6.02559586074362e+01	(-1.34560351054638e+00dB,-2.73959106385907e+01Ḟ)
6.30957344480197e+01	(-1.44396462865633e+00dB,-2.84248281486630e+01Ḟ)
6.60693448007600e+01	(-1.54890560011763e+00dB,-2.94730376492509e+01Ḟ)
6.91830970918941e+01	(-1.66065751213061e+00dB,-3.05389347139856e+01Ḟ)
7.24435960074995e+01	(-1.77943154430501e+00dB,-3.16207535266927e+01Ḟ)
7.58577575029189e+01	(-1.90541544949290e+00dB,-3.27165784367579e+01Ḟ)
7.94328234724287e+01	(-2.03877018538652e+00dB,-3.38243593729992e+01Ḟ)
8.31763771102677e+01	(-2.17962680513959e+00dB,-3.49419310819046e+01Ḟ)
8.70963589956087e+01	(-2.32808371806976e+00dB,-3.60670360118721e+01Ḟ)
9.12010839355916e+01	(-2.48420442944796e+00dB,-3.71973505124321e+01Ḟ)
9.54992586021443e+01	(-2.64801586109403e+00dB,-3.83305138640166e+01Ḟ)
1.00000000000001e+02	(-2.81950734185621e+00dB,-3.94641595083951e+01Ḟ)
1.04712854805091e+02	(-2.99863033933550e+00dB,-4.05959477210922e+01Ḟ)
1.09647819614319e+02	(-3.18529898203171e+00dB,-4.17235988631891e+01Ḟ)
1.14815362149689e+02	(-3.37939139540379e+00dB,-4.28449262777883e+01Ḟ)
1.20226443461742e+02	(-3.58075184731680e+00dB,-4.39578678611423e+01Ḟ)
1.25892541179418e+02	(-3.78919366936606e+00dB,-4.50605153428272e+01Ḟ)
1.31825673855642e+02	(-4.00450289199044e+00dB,-4.61511403539042e+01Ḟ)
1.38038426460290e+02	(-4.22644250445546e+00dB,-4.72282164449553e+01Ḟ)
1.44543977074594e+02	(-4.45475722687473e+00dB,-4.82904363335224e+01Ḟ)
1.51356124843622e+02	(-4.68917866143998e+00dB,-4.93367238078185e+01Ḟ)
1.58489319246113e+02	(-4.92943067469453e+00dB,-5.03662398844303e+01Ḟ)
1.65958690743757e+02	(-5.17523485255676e+00dB,-5.13783830057178e+01Ḟ)
1.73780082874939e+02	(-5.42631586522367e+00dB,-5.23727832609274e+01Ḟ)
1.81970085861000e+02	(-5.68240658024360e+00dB,-5.33492908170938e+01Ḟ)
1.90546071796326e+02	(-5.94325276898398e+00dB,-5.43079589448293e+01Ḟ)
1.99526231496890e+02	(-6.20861726437758e+00dB,-5.52490222134879e+01Ḟ)
2.08929613085406e+02	(-6.47828344597558e+00dB,-5.61728706028896e+01Ḟ)
2.18776162394957e+02	(-6.75205795159854e+00dB,-5.70800204278575e+01Ḟ)
2.29086765276779e+02	(-7.02977254265173e+00dB,-5.79710830899882e+01Ḟ)
2.39883291901951e+02	(-7.31128508158521e+00dB,-5.88467327515528e+01Ḟ)
2.51188643150960e+02	(-7.59647961387021e+00dB,-5.97076740631858e+01Ḟ)
2.63026799189540e+02	(-7.88526558176349e+00dB,-6.05546110655504e+01Ḟ)
2.75422870333819e+02	(-8.17757623134283e+00dB,-6.13882183233876e+01Ḟ)
2.88403150312663e+02	(-8.47336630595628e+00dB,-6.22091152389956e+01Ḟ)
3.01995172040204e+02	(-8.77260914648593e+00dB,-6.30178443355802e+01Ḟ)
3.16227766016841e+02	(-9.07529333999309e+00dB,-6.38148541067514e+01Ḟ)
3.31131121482594e+02	(-9.38141907203196e+00dB,-6.46004868076894e+01Ḟ)
3.46736850452535e+02	(-9.69099434335654e+00dB,-6.53749713295061e+01Ḟ)
3.63078054770105e+02	(-1.00040312086528e+01dB,-6.61384210656364e+01Ḟ)
3.80189396320565e+02	(-1.03205421837136e+01dB,-6.68908364623382e+01Ḟ)
3.98107170553501e+02	(-1.06405369491757e+01dB,-6.76321117575599e+01Ḟ)
4.16869383470339e+02	(-1.09640194550780e+01dB,-6.83620452640883e+01Ḟ)
4.36515832240170e+02	(-1.12909855029919e+01dB,-6.90803524507715e+01Ḟ)
4.57088189614879e+02	(-1.16214208533523e+01dB,-6.97866810227123e+01Ḟ)
4.78630092322643e+02	(-1.19552998769022e+01dB,-7.04806271963480e+01Ḟ)
5.01187233627277e+02	(-1.22925847426305e+01dB,-7.11617524036895e+01Ḟ)
5.24807460249778e+02	(-1.26332251116641e+01dB,-7.18295997341227e+01Ḟ)
5.49540873857630e+02	(-1.29771582882353e+01dB,-7.24837095228978e+01Ḟ)
5.75439937337163e+02	(-1.33243097655961e+01dB,-7.31236336127312e+01Ḟ)
6.02559586074364e+02	(-1.36745940966388e+01dB,-7.37489479392441e+01Ḟ)
6.30957344480200e+02	(-1.40279160156827e+01dB,-7.43592632134827e+01Ḟ)
6.60693448007603e+02	(-1.43841717387787e+01dB,-7.49542335886201e+01Ḟ)
6.91830970918944e+02	(-1.47432503741903e+01dB,-7.55335632978990e+01Ḟ)
7.24435960074998e+02	(-1.51050353815153e+01dB,-7.60970113337568e+01Ḟ)
7.58577575029192e+02	(-1.54694060263936e+01dB,-7.66443943025381e+01Ḟ)
7.94328234724290e+02	(-1.58362387870497e+01dB,-7.71755876352495e+01Ḟ)
8.31763771102680e+02	(-1.62054086784132e+01dB,-7.76905253638518e+01Ḟ)
8.70963589956090e+02	(-1.65767904686588e+01dB,-7.81891986865986e+01Ḟ)
9.12010839355920e+02	(-1.69502597713607e+01dB,-7.86716535475123e+01Ḟ)
9.54992586021446e+02	(-1.73256940037768e+01dB,-7.91379874469088e+01Ḟ)
1.00000000000001e+03	(-1.77029732079523e+01dB,-7.95883456845529e+01Ḟ)
1.04712854805091e+03	(-1.80819807363264e+01dB,-8.00229172169672e+01Ḟ)
1.09647819614320e+03	(-1.84626038073749e+01dB,-8.04419302876418e+01Ḟ)
1.14815362149690e+03	(-1.88447339396262e+01dB,-8.08456479651312e+01Ḟ)
1.20226443461743e+03	(-1.92282672742709e+01dB,-8.12343637005409e+01Ḟ)
1.25892541179418e+03	(-1.96131047976931e+01dB,-8.16083969936692e+01Ḟ)
1.31825673855642e+03	(-1.99991524757169e+01dB,-8.19680892367100e+01Ḟ)
1.38038426460290e+03	(-2.03863213113340e+01dB,-8.23137997863089e+01Ḟ)
1.44543977074594e+03	(-2.07745273372738e+01dB,-8.26459022990722e+01Ḟ)
1.51356124843623e+03	(-2.11636915541091e+01dB,-8.29647813523487e+01Ḟ)
1.58489319246113e+03	(-2.15537398237435e+01dB,-8.32708293611613e+01Ḟ)
1.65958690743758e+03	(-2.19446027271793e+01dB,-8.35644437933405e+01Ḟ)
1.73780082874940e+03	(-2.23362153944854e+01dB,-8.38460246780316e+01Ḟ)
1.81970085861001e+03	(-2.27285173138877e+01dB,-8.41159723975221e+01Ḟ)
1.90546071796327e+03	(-2.31214521259601e+01dB,-8.43746857485569e+01Ḟ)
1.99526231496890e+03	(-2.35149674079995e+01dB,-8.46225602567261e+01Ḟ)
2.08929613085406e+03	(-2.39090144528361e+01dB,-8.48599867259088e+01Ḟ)
2.18776162394958e+03	(-2.43035480455921e+01dB,-8.50873500039420e+01Ḟ)
2.29086765276780e+03	(-2.46985262412257e+01dB,-8.53050279454944e+01Ḟ)
2.39883291901952e+03	(-2.50939101451149e+01dB,-8.55133905533930e+01Ḟ)
2.51188643150961e+03	(-2.54896636984213e+01dB,-8.57127992802866e+01Ḟ)
2.63026799189541e+03	(-2.58857534695332e+01dB,-8.59036064733952e+01Ḟ)
2.75422870333820e+03	(-2.62821484525106e+01dB,-8.60861549461357e+01Ḟ)
2.88403150312664e+03	(-2.66788198731365e+01dB,-8.62607776615476e+01Ḟ)
3.01995172040205e+03	(-2.70757410029132e+01dB,-8.64277975136306e+01Ḟ)
3.16227766016842e+03	(-2.74728869811215e+01dB,-8.65875271938894e+01Ḟ)
3.31131121482595e+03	(-2.78702346448773e+01dB,-8.67402691315580e+01Ḟ)
3.46736850452536e+03	(-2.82677623669734e+01dB,-8.68863154970985e+01Ḟ)
3.63078054770106e+03	(-2.86654499011731e+01dB,-8.70259482596384e+01Ḟ)
3.80189396320566e+03	(-2.90632782345271e+01dB,-8.71594392900156e+01Ḟ)
3.98107170553503e+03	(-2.94612294462056e+01dB,-8.72870505020300e+01Ḟ)
4.16869383470341e+03	(-2.98592865722806e+01dB,-8.74090340253562e+01Ḟ)
4.36515832240172e+03	(-3.02574334758377e+01dB,-8.75256324043568e+01Ḟ)
4.57088189614881e+03	(-3.06556547217648e+01dB,-8.76370788177454e+01Ḟ)
4.78630092322645e+03	(-3.10539354555285e+01dB,-8.77435973146903e+01Ḟ)
5.01187233627279e+03	(-3.14522612852228e+01dB,-8.78454030635271e+01Ḟ)
5.24807460249780e+03	(-3.18506181661508e+01dB,-8.79427026097637e+01Ḟ)
5.49540873857632e+03	(-3.22489922871792e+01dB,-8.80356941405213e+01Ḟ)
5.75439937337165e+03	(-3.26473699580804e+01dB,-8.81245677529633e+01Ḟ)
6.02559586074366e+03	(-3.30457374970574e+01dB,-8.82095057246243e+01Ḟ)
6.30957344480202e+03	(-3.34440811176160e+01dB,-8.82906827838689e+01Ḟ)
6.60693448007605e+03	(-3.38423868139257e+01dB,-8.83682663789939e+01Ḟ)
6.91830970918946e+03	(-3.42406402437721e+01dB,-8.84424169447247e+01Ḟ)
7.24435960075000e+03	(-3.46388266081706e+01dB,-8.85132881650825e+01Ḟ)
7.58577575029195e+03	(-3.50369305266596e+01dB,-8.85810272317728e+01Ḟ)
7.94328234724293e+03	(-3.54349359072507e+01dB,-8.86457750974209e+01Ḟ)
8.31763771102683e+03	(-3.58328258099419e+01dB,-8.87076667231096e+01Ḟ)
8.70963589956093e+03	(-3.62305823026433e+01dB,-8.87668313198048e+01Ḟ)
9.12010839355923e+03	(-3.66281863082782e+01dB,-8.88233925833548e+01Ḟ)
9.54992586021450e+03	(-3.70256174417411e+01dB,-8.88774689228390e+01Ḟ)
1.00000000000001e+04	(-3.74228538352879e+01dB,-8.89291736821240e+01Ḟ)
1.04712854805092e+04	(-3.78198719508226e+01dB,-8.89786153545431e+01Ḟ)
1.09647819614320e+04	(-3.82166463774161e+01dB,-8.90258977906795e+01Ḟ)
1.14815362149690e+04	(-3.86131496122443e+01dB,-8.90711203992749e+01Ḟ)
1.20226443461743e+04	(-3.90093518229709e+01dB,-8.91143783413288e+01Ḟ)
1.25892541179419e+04	(-3.94052205894134e+01dB,-8.91557627174874e+01Ḟ)
1.31825673855643e+04	(-3.98007206221241e+01dB,-8.91953607488474e+01Ḟ)
1.38038426460291e+04	(-4.01958134552804e+01dB,-8.92332559513276e+01Ḟ)
1.44543977074595e+04	(-4.05904571110155e+01dB,-8.92695283037774e+01Ḟ)
1.51356124843623e+04	(-4.09846057320211e+01dB,-8.93042544100117e+01Ḟ)
1.58489319246114e+04	(-4.13782091789181e+01dB,-8.93375076549723e+01Ḟ)
1.65958690743759e+04	(-4.17712125885095e+01dB,-8.93693583552323e+01Ḟ)
1.73780082874940e+04	(-4.21635558885987e+01dB,-8.93998739040672e+01Ḟ)
1.81970085861001e+04	(-4.25551732645693e+01dB,-8.94291189113267e+01Ḟ)
1.90546071796328e+04	(-4.29459925723719e+01dB,-8.94571553383522e+01Ḟ)
1.99526231496891e+04	(-4.33359346919234e+01dB,-8.94840426281912e+01Ḟ)
2.08929613085407e+04	(-4.37249128142197e+01dB,-8.95098378313698e+01Ḟ)
2.18776162394959e+04	(-4.41128316546309e+01dB,-8.95345957274944e+01Ḟ)
2.29086765276781e+04	(-4.44995865839113e+01dB,-8.95583689429649e+01Ḟ)
2.39883291901953e+04	(-4.48850626673759e+01dB,-8.95812080650931e+01Ḟ)
2.51188643150962e+04	(-4.52691336014461e+01dB,-8.96031617529380e+01Ḟ)
2.63026799189542e+04	(-4.56516605353274e+01dB,-8.96242768451846e+01Ḟ)
2.75422870333821e+04	(-4.60324907639065e+01dB,-8.96445984654179e+01Ḟ)
2.88403150312665e+04	(-4.64114562760081e+01dB,-8.96641701251710e+01Ḟ)
3.01995172040207e+04	(-4.67883721398728e+01dB,-8.96830338251587e+01Ḟ)
3.16227766016843e+04	(-4.71630347050402e+01dB,-8.97012301551510e+01Ḟ)
3.31131121482597e+04	(-4.75352195966733e+01dB,-8.97187983929930e+01Ḟ)
3.46736850452537e+04	(-4.79046794746248e+01dB,-8.97357766033416e+01Ḟ)
3.63078054770107e+04	(-4.82711415251136e+01dB,-8.97522017367676e+01Ḟ)
3.80189396320568e+04	(-4.86343046475718e+01dB,-8.97681097299753e+01Ḟ)
3.98107170553504e+04	(-4.89938362928643e+01dB,-8.97835356080121e+01Ḟ)
4.16869383470342e+04	(-4.93493689014002e+01dB,-8.97985135894981e+01Ḟ)
4.36515832240173e+04	(-4.97004958803311e+01dB,-8.98130771961056e+01Ḟ)
4.57088189614883e+04	(-5.00467670476629e+01dB,-8.98272593677615e+01Ḟ)
4.78630092322647e+04	(-5.03876834571478e+01dB,-8.98410925853710e+01Ḟ)
5.01187233627281e+04	(-5.07226915005717e+01dB,-8.98546090032610e+01Ḟ)
5.24807460249782e+04	(-5.10511761626248e+01dB,-8.98678405940708e+01Ḟ)
5.49540873857634e+04	(-5.13724532766925e+01dB,-8.98808193094971e+01Ḟ)
5.75439937337167e+04	(-5.16857605960657e+01dB,-8.98935772611921e+01Ḟ)
6.02559586074368e+04	(-5.19902474520489e+01dB,-8.99061469272880e+01Ḟ)
6.30957344480204e+04	(-5.22849627153330e+01dB,-8.99185613915862e+01Ḟ)
6.60693448007608e+04	(-5.25688407057612e+01dB,-8.99308546245499e+01Ḟ)
6.91830970918949e+04	(-5.28406846026731e+01dB,-8.99430618180879e+01Ḟ)
7.24435960075003e+04	(-5.30991467855527e+01dB,-8.99552197900276e+01Ḟ)
7.58577575029197e+04	(-5.33427053716006e+01dB,-8.99673674796010e+01Ḟ)
7.94328234724296e+04	(-5.35696359971308e+01dB,-8.99795465628893e+01Ḟ)
8.31763771102686e+04	(-5.37779775899902e+01dB,-8.99918022280425e+01Ḟ)
8.70963589956096e+04	(-5.39654904659166e+01dB,-9.00041841657938e+01Ḟ)
9.12010839355926e+04	(-5.41296045006576e+01dB,-9.00167478538868e+01Ḟ)
9.54992586021453e+04	(-5.42673543016135e+01dB,-9.00295562485650e+01Ḟ)
1.00000000000002e+05	(-5.43752971020836e+01dB,-9.00426820489438e+01Ḟ)
1.04712854805092e+05	(-5.44494073267046e+01dB,-9.00562107821267e+01Ḟ)
1.09647819614321e+05	(-5.44849390982392e+01dB,-9.00702450877679e+01Ḟ)
1.14815362149690e+05	(-5.44762438171832e+01dB,-9.00849107950033e+01Ḟ)
1.20226443461744e+05	(-5.44165233807927e+01dB,-9.01003657458390e+01Ḟ)
1.25892541179419e+05	(-5.42974888827392e+01dB,-9.01168129485754e+01Ḟ)
1.31825673855643e+05	(-5.41088765142721e+01dB,-9.01345207841817e+01Ḟ)
1.38038426460291e+05	(-5.38377405729289e+01dB,-9.01538551422621e+01Ḟ)
1.44543977074595e+05	(-5.34673850756657e+01dB,-9.01753326454630e+01Ḟ)
1.51356124843624e+05	(-5.29756824583458e+01dB,-9.01997131583900e+01Ḟ)
1.58489319246114e+05	(-5.23322950031298e+01dB,-9.02281702634590e+01Ḟ)
1.65958690743759e+05	(-5.14937967113810e+01dB,-9.02626290819551e+01Ḟ)
1.73780082874941e+05	(-5.03944251126577e+01dB,-9.03065009279836e+01Ḟ)
1.81970085861002e+05	(-4.89266742008768e+01dB,-9.03664917558748e+01Ḟ)
1.90546071796328e+05	(-4.68943623813710e+01dB,-9.04579069129791e+01Ḟ)
1.99526231496892e+05	(-4.38717196228055e+01dB,-9.06250924497678e+01Ḟ)
2.08929613085408e+05	(-3.85780959380613e+01dB,-9.10731162148890e+01Ḟ)
2.18776162394960e+05	(-1.83135351113586e+01dB,-9.99350169708196e+01Ḟ)
2.29086765276782e+05	(-3.72649505859062e+01dB,9.09355126119509e+01Ḟ)
2.39883291901954e+05	(-4.39019297413150e+01dB,9.03289993740347e+01Ḟ)
2.51188643150963e+05	(-4.76344664701192e+01dB,9.01297518800767e+01Ḟ)
2.63026799189543e+05	(-5.01705747191916e+01dB,9.00234772301853e+01Ḟ)
2.75422870333822e+05	(-5.20013974995673e+01dB,8.99523509640413e+01Ḟ)
2.88403150312666e+05	(-5.33243360938546e+01dB,8.98975124301336e+01Ḟ)
3.01995172040208e+05	(-5.42238570370120e+01dB,8.98506904233485e+01Ḟ)
3.16227766016844e+05	(-5.47247427180920e+01dB,8.98072802861947e+01Ḟ)
3.31131121482598e+05	(-5.48073474296538e+01dB,8.97638788614701e+01Ḟ)
3.46736850452539e+05	(-5.44030334778631e+01dB,8.97168290885525e+01Ḟ)
3.63078054770109e+05	(-5.33653122036256e+01dB,8.96602367491043e+01Ḟ)
3.80189396320569e+05	(-5.13792354895095e+01dB,8.95803029681408e+01Ḟ)
3.98107170553505e+05	(-4.76143646564011e+01dB,8.94271709276276e+01Ḟ)
4.16869383470344e+05	(-3.80500014036406e+01dB,8.87152247661201e+01Ḟ)
4.36515832240175e+05	(-4.00082030704638e+01dB,-8.94959938146613e+01Ḟ)
4.57088189614884e+05	(-4.90335869132473e+01dB,-9.00574519065108e+01Ḟ)
4.78630092322648e+05	(-5.29790880834737e+01dB,-9.02043448664511e+01Ḟ)
