Freq.	V(n016)
Step Information: Run=1  (Step: 1/100)
1.00000000000000e+00	(-1.38269070912422e-01dB,-5.47966469191375e-01°)
1.04712854805090e+00	(-1.38307499260958e-01dB,-5.73789638496461e-01°)
1.09647819614319e+00	(-1.38349634716305e-01dB,-6.00829565211252e-01°)
1.14815362149688e+00	(-1.38395834854687e-01dB,-6.29143556157162e-01°)
1.20226443461741e+00	(-1.38446491734032e-01dB,-6.58791613431898e-01°)
1.25892541179417e+00	(-1.38502035218703e-01dB,-6.89836560621330e-01°)
1.31825673855641e+00	(-1.38562936622009e-01dB,-7.22344174834302e-01°)
1.38038426460289e+00	(-1.38629712701193e-01dB,-7.56383324826279e-01°)
1.44543977074593e+00	(-1.38702930035954e-01dB,-7.92026115463905e-01°)
1.51356124843621e+00	(-1.38783209828520e-01dB,-8.29348038826232e-01°)
1.58489319246111e+00	(-1.38871233164829e-01dB,-8.68428132211581e-01°)
1.65958690743756e+00	(-1.38967746783266e-01dB,-9.09349143348040e-01°)
1.73780082874938e+00	(-1.39073569396398e-01dB,-9.52197703124070e-01°)
1.81970085860999e+00	(-1.39189598620585e-01dB,-9.97064506127284e-01°)
1.90546071796325e+00	(-1.39316818571938e-01dB,-1.04404449934221e+00°)
1.99526231496888e+00	(-1.39456308191379e-01dB,-1.09323707931692e+00°)
2.08929613085404e+00	(-1.39609250368310e-01dB,-1.14474629813902e+00°)
2.18776162394956e+00	(-1.39776941939986e-01dB,-1.19868107857779e+00°)
2.29086765276778e+00	(-1.39960804649968e-01dB,-1.25515543872474e+00°)
2.39883291901949e+00	(-1.40162397156010e-01dB,-1.31428872650538e+00°)
2.51188643150958e+00	(-1.40383428188231e-01dB,-1.37620586440443e+00°)
2.63026799189539e+00	(-1.40625770966396e-01dB,-1.44103760477722e+00°)
2.75422870333817e+00	(-1.40891478996190e-01dB,-1.50892079609259e+00°)
2.88403150312661e+00	(-1.41182803373270e-01dB,-1.57999866047516e+00°)
3.01995172040202e+00	(-1.41502211740670e-01dB,-1.65442108288210e+00°)
3.16227766016839e+00	(-1.41852409052029e-01dB,-1.73234491225705e+00°)
3.31131121482592e+00	(-1.42236360313670e-01dB,-1.81393427498515e+00°)
3.46736850452532e+00	(-1.42657315488154e-01dB,-1.89936090094461e+00°)
3.63078054770102e+00	(-1.43118836764669e-01dB,-1.98880446243568e+00°)
3.80189396320562e+00	(-1.43624828414435e-01dB,-2.08245292622297e+00°)
3.98107170553498e+00	(-1.44179569473858e-01dB,-2.18050291889397e+00°)
4.16869383470336e+00	(-1.44787749515054e-01dB,-2.28316010568646e+00°)
4.36515832240167e+00	(-1.45454507790486e-01dB,-2.39063958285952e+00°)
4.57088189614876e+00	(-1.46185476061497e-01dB,-2.50316628363229e+00°)
4.78630092322640e+00	(-1.46986825446064e-01dB,-2.62097539760235e+00°)
5.01187233627274e+00	(-1.47865317652271e-01dB,-2.74431280346466e+00°)
5.24807460249774e+00	(-1.48828360994137e-01dB,-2.87343551470974e+00°)
5.49540873857626e+00	(-1.49884071617915e-01dB,-3.00861213785127e+00°)
5.75439937337159e+00	(-1.51041340403768e-01dB,-3.15012334253827e+00°)
6.02559586074359e+00	(-1.52309906042388e-01dB,-3.29826234272034e+00°)
6.30957344480195e+00	(-1.53700434830178e-01dB,-3.45333538778417e+00°)
6.60693448007598e+00	(-1.55224607761170e-01dB,-3.61566226231289e+00°)
6.91830970918939e+00	(-1.56895215542380e-01dB,-3.78557679280082e+00°)
7.24435960074992e+00	(-1.58726262201101e-01dB,-3.96342735928806e+00°)
7.58577575029186e+00	(-1.60733077999678e-01dB,-4.14957740945573e+00°)
7.94328234724284e+00	(-1.62932442419311e-01dB,-4.34440597224561e+00°)
8.31763771102674e+00	(-1.65342718022049e-01dB,-4.54830816751003e+00°)
8.70963589956084e+00	(-1.67983996046723e-01dB,-4.76169570756631e+00°)
9.12010839355913e+00	(-1.70878254638521e-01dB,-4.98499738581805e+00°)
9.54992586021439e+00	(-1.74049530656544e-01dB,-5.21865954678198e+00°)
1.00000000000000e+01	(-1.77524106039066e-01dB,-5.46314653094964e+00°)
1.04712854805090e+01	(-1.81330709740866e-01dB,-5.71894108686172e+00°)
1.09647819614319e+01	(-1.85500736278105e-01dB,-5.98654474162180e+00°)
1.14815362149689e+01	(-1.90068481931600e-01dB,-6.26647811975231e+00°)
1.20226443461742e+01	(-1.95071399655862e-01dB,-6.55928119885241e+00°)
1.25892541179417e+01	(-2.00550373722241e-01dB,-6.86551348889491e+00°)
1.31825673855641e+01	(-2.06550015078673e-01dB,-7.18575412021488e+00°)
1.38038426460289e+01	(-2.13118978342009e-01dB,-7.52060182327969e+00°)
1.44543977074593e+01	(-2.20310301227707e-01dB,-7.87067478118876e+00°)
1.51356124843621e+01	(-2.28181767075789e-01dB,-8.23661033353593e+00°)
1.58489319246112e+01	(-2.36796290931577e-01dB,-8.61906450777086e+00°)
1.65958690743757e+01	(-2.46222329383356e-01dB,-9.01871135154881e+00°)
1.73780082874938e+01	(-2.56534314025498e-01dB,-9.43624203677547e+00°)
1.81970085860999e+01	(-2.67813108008471e-01dB,-9.87236370317371e+00°)
1.90546071796326e+01	(-2.80146484627838e-01dB,-1.03277980062715e+01°)
1.99526231496889e+01	(-2.93629626291844e-01dB,-1.08032793318141e+01°)
2.08929613085405e+01	(-3.08365641469269e-01dB,-1.12995526358234e+01°)
2.18776162394956e+01	(-3.24466096352401e-01dB,-1.18173708669837e+01°)
2.29086765276778e+01	(-3.42051556941082e-01dB,-1.23574919258975e+01°)
2.39883291901950e+01	(-3.61252136085109e-01dB,-1.29206751141741e+01°)
2.51188643150959e+01	(-3.82208038662030e-01dB,-1.35076770255692e+01°)
2.63026799189540e+01	(-4.05070096560638e-01dB,-1.41192468316887e+01°)
2.75422870333818e+01	(-4.30000283431832e-01dB,-1.47561209164988e+01°)
2.88403150312662e+01	(-4.57172197335815e-01dB,-1.54190168172982e+01°)
3.01995172040203e+01	(-4.86771497410830e-01dB,-1.61086264354148e+01°)
3.16227766016840e+01	(-5.18996278607187e-01dB,-1.68256084880049e+01°)
3.31131121482593e+01	(-5.54057366382909e-01dB,-1.75705801834792e+01°)
3.46736850452534e+01	(-5.92178511144487e-01dB,-1.83441081176279e+01°)
3.63078054770103e+01	(-6.33596460213878e-01dB,-1.91466984058981e+01°)
3.80189396320563e+01	(-6.78560883350263e-01dB,-1.99787860897842e+01°)
3.98107170553500e+01	(-7.27334126476332e-01dB,-2.08407238821406e+01°)
4.16869383470338e+01	(-7.80190767461118e-01dB,-2.17327703473801e+01°)
4.36515832240169e+01	(-8.37416947740366e-01dB,-2.26550776478050e+01°)
4.57088189614878e+01	(-8.99309454475693e-01dB,-2.36076790260798e+01°)
4.78630092322641e+01	(-9.66174530032851e-01dB,-2.45904762352178e+01°)
5.01187233627275e+01	(-1.03832638903285e+00dB,-2.56032271699660e+01°)
5.24807460249776e+01	(-1.11608542825442e+00dB,-2.66455339952862e+01°)
5.49540873857628e+01	(-1.19977612138445e+00dB,-2.77168321063330e+01°)
5.75439937337161e+01	(-1.28972459904165e+00dB,-2.88163802871758e+01°)
6.02559586074362e+01	(-1.38625592461089e+00dB,-2.99432524592645e+01°)
6.30957344480197e+01	(-1.48969108799517e+00dB,-3.10963314220540e+01°)
6.60693448007600e+01	(-1.60034375209616e+00dB,-3.22743049839802e+01°)
6.91830970918941e+01	(-1.71851680016419e+00dB,-3.34756648592413e+01°)
7.24435960074995e+01	(-1.84449874544859e+00dB,-3.46987086624459e+01°)
7.58577575029189e+01	(-1.97856007704875e+00dB,-3.59415452680481e+01°)
7.94328234724287e+01	(-2.12094962662863e+00dB,-3.72021037149418e+01°)
8.31763771102677e+01	(-2.27189104881334e+00dB,-3.84781457306627e+01°)
8.70963589956087e+01	(-2.43157951278171e+00dB,-3.97672818281435e+01°)
9.12010839355916e+01	(-2.60017870310305e+00dB,-4.10669907964186e+01°)
9.54992586021443e+01	(-2.77781822375394e+00dB,-4.23746422721363e+01°)
1.00000000000001e+02	(-2.96459149032823e+00dB,-4.36875219491912e+01°)
1.04712854805091e+02	(-3.16055418189975e+00dB,-4.50028588676593e+01°)
1.09647819614319e+02	(-3.36572330637218e+00dB,-4.63178541284662e+01°)
1.14815362149689e+02	(-3.58007691235214e+00dB,-4.76297103136845e+01°)
1.20226443461742e+02	(-3.80355445779858e+00dB,-4.89356608589366e+01°)
1.25892541179418e+02	(-4.03605782229109e+00dB,-5.02329986266308e+01°)
1.31825673855642e+02	(-4.27745292715453e+00dB,-5.15191029664621e+01°)
1.38038426460290e+02	(-4.52757190721094e+00dB,-5.27914646199777e+01°)
1.44543977074594e+02	(-4.78621576077004e+00dB,-5.40477079238046e+01°)
1.51356124843622e+02	(-5.05315739146840e+00dB,-5.52856098843914e+01°)
1.58489319246113e+02	(-5.32814494723736e+00dB,-5.65031158277358e+01°)
1.65958690743757e+02	(-5.61090535816759e+00dB,-5.76983514621438e+01°)
1.73780082874939e+02	(-5.90114797611166e+00dB,-5.88696313227446e+01°)
1.81970085861000e+02	(-6.19856822404197e+00dB,-6.00154636862836e+01°)
1.90546071796326e+02	(-6.50285117170254e+00dB,-6.11345521484323e+01°)
1.99526231496890e+02	(-6.81367496512054e+00dB,-6.22257941397830e+01°)
2.08929613085406e+02	(-7.13071405015763e+00dB,-6.32882767191396e+01°)
2.18776162394957e+02	(-7.45364214361932e+00dB,-6.43212700234388e+01°)
2.29086765276779e+02	(-7.78213491872045e+00dB,-6.53242187739495e+01°)
2.39883291901951e+02	(-8.11587238429406e+00dB,-6.62967322404811e+01°)
2.51188643150960e+02	(-8.45454094853283e+00dB,-6.72385730522406e+01°)
2.63026799189540e+02	(-8.79783516795911e+00dB,-6.81496452188686e+01°)
2.75422870333819e+02	(-9.14545919053823e+00dB,-6.90299816914763e+01°)
2.88403150312663e+02	(-9.49712790834859e+00dB,-6.98797317542539e+01°)
3.01995172040204e+02	(-9.85256784004587e+00dB,-7.06991484952054e+01°)
3.16227766016841e+02	(-1.02115177666437e+01dB,-7.14885765621031e+01°)
3.31131121482594e+02	(-1.05737291460601e+01dB,-7.22484403686529e+01°)
3.46736850452535e+02	(-1.09389663326522e+01dB,-7.29792328774754e+01°)
3.63078054770105e+02	(-1.13070066277970e+01dB,-7.36815050517416e+01°)
3.80189396320565e+02	(-1.16776401866847e+01dB,-7.43558560366478e+01°)
3.98107170553501e+02	(-1.20506698050592e+01dB,-7.50029241056421e+01°)
4.16869383470339e+02	(-1.24259106078403e+01dB,-7.56233783843170e+01°)
4.36515832240170e+02	(-1.28031896595426e+01dB,-7.62179113470224e+01°)
4.57088189614879e+02	(-1.31823455142734e+01dB,-7.67872320671384e+01°)
4.78630092322643e+02	(-1.35632277209507e+01dB,-7.73320601912338e+01°)
5.01187233627277e+02	(-1.39456962972959e+01dB,-7.78531205995445e+01°)
5.24807460249778e+02	(-1.43296211841764e+01dB,-7.83511387099331e+01°)
5.49540873857630e+02	(-1.47148816900367e+01dB,-7.88268363792997e+01°)
5.75439937337163e+02	(-1.51013659334782e+01dB,-7.92809283549219e+01°)
6.02559586074364e+02	(-1.54889702905440e+01dB,-7.97141192280637e+01°)
6.30957344480200e+02	(-1.58775988519272e+01dB,-8.01271008430903e+01°)
6.60693448007603e+02	(-1.62671628941581e+01dB,-8.05205501170135e+01°)
6.91830970918944e+02	(-1.66575803678123e+01dB,-8.08951272266327e+01°)
7.24435960074998e+02	(-1.70487754049207e+01dB,-8.12514741230575e+01°)
7.58577575029192e+02	(-1.74406778470325e+01dB,-8.15902133362517e+01°)
7.94328234724290e+02	(-1.78332227947711e+01dB,-8.19119470352039e+01°)
8.31763771102680e+02	(-1.82263501792182e+01dB,-8.22172563123240e+01°)
8.70963589956090e+02	(-1.86200043550497e+01dB,-8.25067006636140e+01°)
9.12010839355920e+02	(-1.90141337150145e+01dB,-8.27808176390242e+01°)
9.54992586021446e+02	(-1.94086903250837e+01dB,-8.30401226401412e+01°)
1.00000000000001e+03	(-1.98036295793917e+01dB,-8.32851088449468e+01°)
1.04712854805091e+03	(-2.01989098739354e+01dB,-8.35162472418268e+01°)
1.09647819614320e+03	(-2.05944922978824e+01dB,-8.37339867572828e+01°)
1.14815362149690e+03	(-2.09903403412557e+01dB,-8.39387544639258e+01°)
1.20226443461743e+03	(-2.13864196177116e+01dB,-8.41309558573011e+01°)
1.25892541179418e+03	(-2.17826976010948e+01dB,-8.43109751919233e+01°)
1.31825673855642e+03	(-2.21791433744436e+01dB,-8.44791758686128e+01°)
1.38038426460290e+03	(-2.25757273901228e+01dB,-8.46359008668036e+01°)
1.44543977074594e+03	(-2.29724212397742e+01dB,-8.47814732169966e+01°)
1.51356124843623e+03	(-2.33691974328076e+01dB,-8.49161965099276e+01°)
1.58489319246113e+03	(-2.37660291821858e+01dB,-8.50403554403635e+01°)
1.65958690743758e+03	(-2.41628901963064e+01dB,-8.51542163847185e+01°)
1.73780082874940e+03	(-2.45597544758333e+01dB,-8.52580280129242e+01°)
1.81970085861001e+03	(-2.49565961143988e+01dB,-8.53520219361994e+01°)
1.90546071796327e+03	(-2.53533891021623e+01dB,-8.54364133935635e+01°)
1.99526231496890e+03	(-2.57501071313027e+01dB,-8.55114019811295e+01°)
2.08929613085406e+03	(-2.61467234026120e+01dB,-8.55771724294059e+01°)
2.18776162394958e+03	(-2.65432104324758e+01dB,-8.56338954350428e+01°)
2.29086765276780e+03	(-2.69395398596525e+01dB,-8.56817285546759e+01°)
2.39883291901952e+03	(-2.73356822514215e+01dB,-8.57208171697518e+01°)
2.51188643150961e+03	(-2.77316069088464e+01dB,-8.57512955324551e+01°)
2.63026799189541e+03	(-2.81272816711135e+01dB,-8.57732879040982e+01°)
2.75422870333820e+03	(-2.85226727191542e+01dB,-8.57869097985481e+01°)
2.88403150312664e+03	(-2.89177443790479e+01dB,-8.57922693444389e+01°)
3.01995172040205e+03	(-2.93124589260417e+01dB,-8.57894687810107e+01°)
3.16227766016842e+03	(-2.97067763904179e+01dB,-8.57786061033812e+01°)
3.31131121482595e+03	(-3.01006543668910e+01dB,-8.57597768738327e+01°)
3.46736850452536e+03	(-3.04940478297397e+01dB,-8.57330762162068e+01°)
3.63078054770106e+03	(-3.08869089564680e+01dB,-8.56986010106456e+01°)
3.80189396320566e+03	(-3.12791869634585e+01dB,-8.56564523055901e+01°)
3.98107170553503e+03	(-3.16708279578207e+01dB,-8.56067379629868e+01°)
4.16869383470341e+03	(-3.20617748104563e+01dB,-8.55495755509235e+01°)
4.36515832240172e+03	(-3.24519670562404e+01dB,-8.54850954952095e+01°)
4.57088189614881e+03	(-3.28413408281602e+01dB,-8.54134444975210e+01°)
4.78630092322645e+03	(-3.32298288332143e+01dB,-8.53347892224476e+01°)
5.01187233627279e+03	(-3.36173603788561e+01dB,-8.52493202488198e+01°)
5.24807460249780e+03	(-3.40038614596916e+01dB,-8.51572562718702e+01°)
5.49540873857632e+03	(-3.43892549149852e+01dB,-8.50588485318314e+01°)
5.75439937337165e+03	(-3.47734606682010e+01dB,-8.49543854313177e+01°)
6.02559586074366e+03	(-3.51563960602330e+01dB,-8.48441972881698e+01°)
6.30957344480202e+03	(-3.55379762880421e+01dB,-8.47286611523137e+01°)
6.60693448007605e+03	(-3.59181149600146e+01dB,-8.46082055947532e+01°)
6.91830970918946e+03	(-3.62967247783376e+01dB,-8.44833153543604e+01°)
7.24435960075000e+03	(-3.66737183569219e+01dB,-8.43545357042490e+01°)
7.58577575029195e+03	(-3.70490091807415e+01dB,-8.42224763750326e+01°)
7.94328234724293e+03	(-3.74225127087793e+01dB,-8.40878148484007e+01°)
8.31763771102683e+03	(-3.77941476179604e+01dB,-8.39512988127397e+01°)
8.70963589956093e+03	(-3.81638371794661e+01dB,-8.38137475549158e+01°)
9.12010839355923e+03	(-3.85315107516601e+01dB,-8.36760520510873e+01°)
9.54992586021450e+03	(-3.88971053656279e+01dB,-8.35391735170298e+01°)
1.00000000000001e+04	(-3.92605673702450e+01dB,-8.34041401875688e+01°)
1.04712854805092e+04	(-3.96218540940905e+01dB,-8.32720421178256e+01°)
1.09647819614320e+04	(-3.99809354719071e+01dB,-8.31440238382284e+01°)
1.14815362149690e+04	(-4.03377955742877e+01dB,-8.30212747520733e+01°)
1.20226443461743e+04	(-4.06924339715991e+01dB,-8.29050172391903e+01°)
1.25892541179419e+04	(-4.10448668576402e+01dB,-8.27964925209914e+01°)
1.31825673855643e+04	(-4.13951278560319e+01dB,-8.26969444481268e+01°)
1.38038426460291e+04	(-4.17432684335986e+01dB,-8.26076014876489e+01°)
1.44543977074595e+04	(-4.20893578506543e+01dB,-8.25296573056198e+01°)
1.51356124843623e+04	(-4.24334825884918e+01dB,-8.24642504555962e+01°)
1.58489319246114e+04	(-4.27757452094869e+01dB,-8.24124437844221e+01°)
1.65958690743759e+04	(-4.31162626246487e+01dB,-8.23752042449480e+01°)
1.73780082874940e+04	(-4.34551637662994e+01dB,-8.23533838520027e+01°)
1.81970085861001e+04	(-4.37925866885415e+01dB,-8.23477025260932e+01°)
1.90546071796328e+04	(-4.41286751436272e+01dB,-8.23587335344404e+01°)
1.99526231496891e+04	(-4.44635747064065e+01dB,-8.23868921599694e+01°)
2.08929613085407e+04	(-4.47974285397957e+01dB,-8.24324281085306e+01°)
2.18776162394959e+04	(-4.51303729099135e+01dB,-8.24954220095101e+01°)
2.29086765276781e+04	(-4.54625325687934e+01dB,-8.25757861851215e+01°)
2.39883291901953e+04	(-4.57940161244808e+01dB,-8.26732696715435e+01°)
2.51188643150962e+04	(-4.61249115126018e+01dB,-8.27874672844865e+01°)
2.63026799189542e+04	(-4.64552816704933e+01dB,-8.29178323463346e+01°)
2.75422870333821e+04	(-4.67851604956750e+01dB,-8.30636925438389e+01°)
2.88403150312665e+04	(-4.71145491462525e+01dB,-8.32242682738005e+01°)
3.01995172040207e+04	(-4.74434127135028e+01dB,-8.33986927651336e+01°)
3.16227766016843e+04	(-4.77716772682456e+01dB,-8.35860332411076e+01°)
3.31131121482597e+04	(-4.80992272544057e+01dB,-8.37853124036508e+01°)
3.46736850452537e+04	(-4.84259031768889e+01dB,-8.39955295773260e+01°)
3.63078054770107e+04	(-4.87514995076339e+01dB,-8.42156809365722e+01°)
3.80189396320568e+04	(-4.90757627140778e+01dB,-8.44447783472559e+01°)
3.98107170553504e+04	(-4.93983892984188e+01dB,-8.46818664733206e+01°)
4.16869383470342e+04	(-4.97190237236661e+01dB,-8.49260379227841e+01°)
4.36515832240173e+04	(-5.00372560927919e+01dB,-8.51764463270973e+01°)
4.57088189614883e+04	(-5.03526194393076e+01dB,-8.54323173583326e+01°)
4.78630092322647e+04	(-5.06645864799626e+01dB,-8.56929577860913e+01°)
5.01187233627281e+04	(-5.09725656715009e+01dB,-8.59577627586713e+01°)
5.24807460249782e+04	(-5.12758964018434e+01dB,-8.62262215610109e+01°)
5.49540873857634e+04	(-5.15738431298036e+01dB,-8.64979221569439e+01°)
5.75439937337167e+04	(-5.18655882643969e+01dB,-8.67725548684453e+01°)
6.02559586074368e+04	(-5.21502235424376e+01dB,-8.70499155841406e+01°)
6.30957344480204e+04	(-5.24267396183807e+01dB,-8.73299089288391e+01°)
6.60693448007608e+04	(-5.26940135192535e+01dB,-8.76125518719505e+01°)
6.91830970918949e+04	(-5.29507935347376e+01dB,-8.78979783137163e+01°)
7.24435960075003e+04	(-5.31956810006864e+01dB,-8.81864452749689e+01°)
7.58577575029197e+04	(-5.34271082832976e+01dB,-8.84783414430620e+01°)
7.94328234724296e+04	(-5.36433120660634e+01dB,-8.87741990139393e+01°)
8.31763771102686e+04	(-5.38423007610054e+01dB,-8.90747100475927e+01°)
8.70963589956096e+04	(-5.40218144777963e+01dB,-8.93807489660512e+01°)
9.12010839355926e+04	(-5.41792754414074e+01dB,-8.96934034388504e+01°)
9.54992586021453e+04	(-5.43117259778349e+01dB,-9.00140168310731e+01°)
1.00000000000002e+05	(-5.44157500743310e+01dB,-9.03442468137458e+01°)
1.04712854805092e+05	(-5.44873728840433e+01dB,-9.06861469571550e+01°)
1.09647819614321e+05	(-5.45219300896167e+01dB,-9.10422816626319e+01°)
1.14815362149690e+05	(-5.45138952723125e+01dB,-9.14158905539462e+01°)
1.20226443461744e+05	(-5.44566475033504e+01dB,-9.18111281193637e+01°)
1.25892541179419e+05	(-5.43421517747126e+01dB,-9.22334211386706e+01°)
1.31825673855643e+05	(-5.41605088426171e+01dB,-9.26900164954866e+01°)
1.38038426460291e+05	(-5.38993032485273e+01dB,-9.31908482743189e+01°)
1.44543977074595e+05	(-5.35426280240406e+01dB,-9.37499637130225e+01°)
1.51356124843624e+05	(-5.30695692205622e+01dB,-9.43879779147275e+01°)
1.58489319246114e+05	(-5.24517417566979e+01dB,-9.51365403657038e+01°)
1.65958690743759e+05	(-5.16490555380300e+01dB,-9.60470380745658e+01°)
1.73780082874941e+05	(-5.06019252222496e+01dB,-9.72090910910259e+01°)
1.81970085861002e+05	(-4.92156292883317e+01dB,-9.87945955217961e+01°)
1.90546071796328e+05	(-4.73250982873054e+01dB,-1.01180372151677e+02°)
1.99526231496892e+05	(-4.46025538506866e+01dB,-1.05378368570995e+02°)
2.08929613085408e+05	(-4.02688281298659e+01dB,-1.15236483712441e+02°)
2.18776162394960e+05	(-3.30871892451015e+01dB,-1.57526906060904e+02°)
2.29086765276782e+05	(-3.73617396834251e+01dB,1.21046662137446e+02°)
2.39883291901954e+05	(-4.35328690249809e+01dB,1.02685696061220e+02°)
2.51188643150963e+05	(-4.73085122817368e+01dB,9.65315194914721e+01°)
2.63026799189543e+05	(-4.99051076881333e+01dB,9.33507443613824e+01°)
2.75422870333822e+05	(-5.17894623513701e+01dB,9.12932983726792e+01°)
2.88403150312666e+05	(-5.31608020872897e+01dB,8.97573051090081e+01°)
3.01995172040208e+05	(-5.41073745148050e+01dB,8.84824861610731e+01°)
3.16227766016844e+05	(-5.46579246534265e+01dB,8.73272483248349e+01°)
3.31131121482598e+05	(-5.47976842236686e+01dB,8.61908769515615e+01°)
3.46736850452539e+05	(-5.44656967247809e+01dB,8.49706933302951e+01°)
3.63078054770109e+05	(-5.35308092557893e+01dB,8.35099429481144e+01°)
3.80189396320569e+05	(-5.17176175939777e+01dB,8.14613938398616e+01°)
3.98107170553505e+05	(-4.83455277138810e+01dB,7.76742862446241e+01°)
4.16869383470344e+05	(-4.08629493094242e+01dB,6.40003059010964e+01°)
4.36515832240175e+05	(-3.85479186064813e+01dB,-6.58836545319204e+01°)
4.57088189614884e+05	(-4.82461696082963e+01dB,-8.67653552647211e+01°)
4.78630092322648e+05	(-5.24793091504559e+01dB,-9.13646371713584e+01°)
