Freq.	V(n016)
Step Information: Run=1  (Step: 1/100)
1.00000000000000e+00	(-1.38231337938266e-01dB,-5.37758314701776e-01°)
1.04712854805090e+00	(-1.38269091971737e-01dB,-5.63100430308974e-01°)
1.09647819614319e+00	(-1.38310488068181e-01dB,-5.89636638156870e-01°)
1.14815362149688e+00	(-1.38355877530944e-01dB,-6.17423177805506e-01°)
1.20226443461741e+00	(-1.38405645540494e-01dB,-6.46518933931537e-01°)
1.25892541179417e+00	(-1.38460214421018e-01dB,-6.76985560192505e-01°)
1.31825673855641e+00	(-1.38520047218848e-01dB,-7.08887608810733e-01°)
1.38038426460289e+00	(-1.38585651627497e-01dB,-7.42292666132823e-01°)
1.44543977074593e+00	(-1.38657584289577e-01dB,-7.77271494416202e-01°)
1.51356124843621e+00	(-1.38736455512675e-01dB,-8.13898180124576e-01°)
1.58489319246111e+00	(-1.38822934439237e-01dB,-8.52250289007698e-01°)
1.65958690743756e+00	(-1.38917754712975e-01dB,-8.92409028252241e-01°)
1.73780082874938e+00	(-1.39021720690791e-01dB,-9.34459416006464e-01°)
1.81970085860999e+00	(-1.39135714251809e-01dB,-9.78490458587807e-01°)
1.90546071796325e+00	(-1.39260702259296e-01dB,-1.02459533568092e+00°)
1.99526231496888e+00	(-1.39397744740663e-01dB,-1.07287159386469e+00°)
2.08929613085404e+00	(-1.39548003852132e-01dB,-1.12342134878279e+00°)
2.18776162394956e+00	(-1.39712753703257e-01dB,-1.17635149631382e+00°)
2.29086765276778e+00	(-1.39893391123486e-01dB,-1.23177393307415e+00°)
2.39883291901949e+00	(-1.40091447461768e-01dB,-1.28980578660452e+00°)
2.51188643150958e+00	(-1.40308601514196e-01dB,-1.35056965559787e+00°)
2.63026799189539e+00	(-1.40546693690496e-01dB,-1.41419386051803e+00°)
2.75422870333817e+00	(-1.40807741535113e-01dB,-1.48081270495532e+00°)
2.88403150312661e+00	(-1.41093956730672e-01dB,-1.55056674808529e+00°)
3.01995172040202e+00	(-1.41407763724638e-01dB,-1.62360308855638e+00°)
3.16227766016839e+00	(-1.41751820133287e-01dB,-1.70007566014679e+00°)
3.31131121482592e+00	(-1.42129039087907e-01dB,-1.78014553950621e+00°)
3.46736850452532e+00	(-1.42542613706981e-01dB,-1.86398126628288e+00°)
3.63078054770102e+00	(-1.42996043895146e-01dB,-1.95175917590532e+00°)
3.80189396320562e+00	(-1.43493165681651e-01dB,-2.04366374526049e+00°)
3.98107170553498e+00	(-1.44038183338791e-01dB,-2.13988795146841e+00°)
4.16869383470336e+00	(-1.44635704536943e-01dB,-2.24063364390255e+00°)
4.36515832240167e+00	(-1.45290778814700e-01dB,-2.34611192954449e+00°)
4.57088189614876e+00	(-1.46008939672026e-01dB,-2.45654357168780e+00°)
4.78630092322640e+00	(-1.46796250614933e-01dB,-2.57215940192583e+00°)
5.01187233627274e+00	(-1.47659355513549e-01dB,-2.69320074523677e+00°)
5.24807460249774e+00	(-1.48605533661463e-01dB,-2.81991985787918e+00°)
5.49540873857626e+00	(-1.49642759961944e-01dB,-2.95258037764272e+00°)
5.75439937337159e+00	(-1.50779770693889e-01dB,-3.09145778585044e+00°)
6.02559586074359e+00	(-1.52026135355365e-01dB,-3.23683988029185e+00°)
6.30957344480195e+00	(-1.53392335114202e-01dB,-3.38902725804709e+00°)
6.60693448007598e+00	(-1.54889848441216e-01dB,-3.54833380689033e+00°)
6.91830970918939e+00	(-1.56531244539860e-01dB,-3.71508720364789e+00°)
7.24435960074992e+00	(-1.58330285233302e-01dB,-3.88962941753331e+00°)
7.58577575029186e+00	(-1.60302036016256e-01dB,-4.07231721606459e+00°)
7.94328234724284e+00	(-1.62462987021274e-01dB,-4.26352267070372e+00°)
8.31763771102674e+00	(-1.64831184700454e-01dB,-4.46363365880745e+00°)
8.70963589956084e+00	(-1.67426375068342e-01dB,-4.67305435787197e+00°)
9.12010839355913e+00	(-1.70270159396532e-01dB,-4.89220572734571e+00°)
9.54992586021439e+00	(-1.73386163294268e-01dB,-5.12152597248938e+00°)
1.00000000000000e+01	(-1.76800220148002e-01dB,-5.36147098385892e+00°)
1.04712854805090e+01	(-1.80540569925603e-01dB,-5.61251474497417e+00°)
1.09647819614319e+01	(-1.84638074376671e-01dB,-5.87514969958422e+00°)
1.14815362149689e+01	(-1.89126449675157e-01dB,-6.14988706867049e+00°)
1.20226443461742e+01	(-1.94042517550181e-01dB,-6.43725710588517e+00°)
1.25892541179417e+01	(-1.99426475936354e-01dB,-6.73780927854833e+00°)
1.31825673855641e+01	(-2.05322190134204e-01dB,-7.05211235955817e+00°)
1.38038426460289e+01	(-2.11777505404710e-01dB,-7.38075441365098e+00°)
1.44543977074593e+01	(-2.18844581826147e-01dB,-7.72434265932189e+00°)
1.51356124843621e+01	(-2.26580252093428e-01dB,-8.08350318544847e+00°)
1.58489319246112e+01	(-2.35046402758059e-01dB,-8.45888049917728e+00°)
1.65958690743757e+01	(-2.44310379154215e-01dB,-8.85113687902494e+00°)
1.73780082874938e+01	(-2.54445413942863e-01dB,-9.26095150437301e+00°)
1.81970085860999e+01	(-2.65531078805858e-01dB,-9.68901932967736e+00°)
1.90546071796326e+01	(-2.77653758338898e-01dB,-1.01360496687805e+01°)
1.99526231496889e+01	(-2.90907144591737e-01dB,-1.06027644518131e+01°)
2.08929613085405e+01	(-3.05392749996174e-01dB,-1.10898961143532e+01°)
2.18776162394956e+01	(-3.21220435568205e-01dB,-1.15981850759268e+01°)
2.29086765276778e+01	(-3.38508950287664e-01dB,-1.21283767626889e+01°)
2.39883291901950e+01	(-3.57386476395446e-01dB,-1.26812181274541e+01°)
2.51188643150959e+01	(-3.77991174041016e-01dB,-1.32574536193053e+01°)
2.63026799189540e+01	(-4.00471717214596e-01dB,-1.38578205551154e+01°)
2.75422870333818e+01	(-4.24987811239987e-01dB,-1.44830438467438e+01°)
2.88403150312662e+01	(-4.51710680277663e-01dB,-1.51338300407682e+01°)
3.01995172040203e+01	(-4.80823511321977e-01dB,-1.58108606327771e+01°)
3.16227766016840e+01	(-5.12521839096487e-01dB,-1.65147846258936e+01°)
3.31131121482593e+01	(-5.47013854113143e-01dB,-1.72462103137592e+01°)
3.46736850452534e+01	(-5.84520614034152e-01dB,-1.80056962821173e+01°)
3.63078054770103e+01	(-6.25276136441355e-01dB,-1.87937416407971e+01°)
3.80189396320563e+01	(-6.69527349305689e-01dB,-1.96107755196552e+01°)
3.98107170553500e+01	(-7.17533873998199e-01dB,-2.04571458880755e+01°)
4.16869383470338e+01	(-7.69567614752058e-01dB,-2.13331077880436e+01°)
4.36515832240169e+01	(-8.25912128275080e-01dB,-2.22388111053683e+01°)
4.57088189614878e+01	(-8.86861747933770e-01dB,-2.31742880418232e+01°)
4.78630092322641e+01	(-9.52720438774377e-01dB,-2.41394404919885e+01°)
5.01187233627275e+01	(-1.02380036285965e+00dB,-2.51340275709870e+01°)
5.24807460249776e+01	(-1.10042013912729e+00dB,-2.61576535814326e+01°)
5.49540873857628e+01	(-1.18290278837275e+00dB,-2.72097567473839e+01°)
5.75439937337161e+01	(-1.27157336208857e+00dB,-2.82895990772173e+01°)
6.02559586074362e+01	(-1.36675626369527e+00dB,-2.93962577429979e+01°)
6.30957344480197e+01	(-1.46877228202464e+00dB,-3.05286183778366e+01°)
6.60693448007600e+01	(-1.57793536944696e+00dB,-3.16853706915422e+01°)
6.91830970918941e+01	(-1.69454921028262e+00dB,-3.28650067857082e+01°)
7.24435960074995e+01	(-1.81890363848818e+00dB,-3.40658225098449e+01°)
7.58577575029189e+01	(-1.95127097627804e+00dB,-3.52859221389910e+01°)
7.94328234724287e+01	(-2.09190237647687e+00dB,-3.65232265704936e+01°)
8.31763771102677e+01	(-2.24102426007170e+00dB,-3.77754851350472e+01°)
8.70963589956087e+01	(-2.39883494581282e+00dB,-3.90402909980475e+01°)
9.12010839355916e+01	(-2.56550157001885e+00dB,-4.03150999971943e+01°)
9.54992586021443e+01	(-2.74115739148904e+00dB,-4.15972526277460e+01°)
1.00000000000001e+02	(-2.92589956834827e+00dB,-4.28839987558801e+01°)
1.04712854805091e+02	(-3.11978748089854e+00dB,-4.41725245215124e+01°)
1.09647819614319e+02	(-3.32284165758675e+00dB,-4.54599807929155e+01°)
1.14815362149689e+02	(-3.53504334087998e+00dB,-4.67435124635404e+01°)
1.20226443461742e+02	(-3.75633470730871e+00dB,-4.80202878419467e+01°)
1.25892541179418e+02	(-3.98661973252667e+00dB,-4.92875273816443e+01°)
1.31825673855642e+02	(-4.22576566936332e+00dB,-5.05425310293228e+01°)
1.38038426460290e+02	(-4.47360508590244e+00dB,-5.17827035349129e+01°)
1.44543977074594e+02	(-4.72993839277259e+00dB,-5.30055771605271e+01°)
1.51356124843622e+02	(-4.99453677503247e+00dB,-5.42088313407208e+01°)
1.58489319246113e+02	(-5.26714543483864e+00dB,-5.53903089758216e+01°)
1.65958690743757e+02	(-5.54748704669739e+00dB,-5.65480291749207e+01°)
1.73780082874939e+02	(-5.83526532738918e+00dB,-5.76801963973790e+01°)
1.81970085861000e+02	(-6.13016862713656e+00dB,-5.87852060643735e+01°)
1.90546071796326e+02	(-6.43187345658062e+00dB,-5.98616468193834e+01°)
1.99526231496890e+02	(-6.74004787478663e+00dB,-6.09082997047513e+01°)
2.08929613085406e+02	(-7.05435467592392e+00dB,-6.19241345883786e+01°)
2.18776162394957e+02	(-7.37445432556578e+00dB,-6.29083042198565e+01°)
2.29086765276779e+02	(-7.70000761094729e+00dB,-6.38601363198756e+01°)
2.39883291901951e+02	(-8.03067798233917e+00dB,-6.47791241126725e+01°)
2.51188643150960e+02	(-8.36613357442025e+00dB,-6.56649157014908e+01°)
2.63026799189540e+02	(-8.70604890683036e+00dB,-6.65173026647102e+01°)
2.75422870333819e+02	(-9.05010627174662e+00dB,-6.73362082187976e+01°)
2.88403150312663e+02	(-9.39799682329217e+00dB,-6.81216752567023e+01°)
3.01995172040204e+02	(-9.74942138890123e+00dB,-6.88738545295647e+01°)
3.16227766016841e+02	(-1.01040910265495e+01dB,-6.95929931980070e+01°)
3.31131121482594e+02	(-1.04617273541983e+01dB,-7.02794239387040e+01°)
3.46736850452535e+02	(-1.08220626790973e+01dB,-7.09335547537747e+01°)
3.63078054770105e+02	(-1.11848399549708e+01dB,-7.15558595957211e+01°)
3.80189396320565e+02	(-1.15498125947895e+01dB,-7.21468698896564e+01°)
3.98107170553501e+02	(-1.19167441659998e+01dB,-7.27071670076324e+01°)
4.16869383470339e+02	(-1.22854079939308e+01dB,-7.32373757268523e+01°)
4.36515832240170e+02	(-1.26555866977685e+01dB,-7.37381586841559e+01°)
4.57088189614879e+02	(-1.30270716821018e+01dB,-7.42102118229341e+01°)
4.78630092322643e+02	(-1.33996626056951e+01dB,-7.46542608149961e+01°)
5.01187233627277e+02	(-1.37731668478973e+01dB,-7.50710584282668e+01°)
5.24807460249778e+02	(-1.41473989919833e+01dB,-7.54613828008923e+01°)
5.49540873857630e+02	(-1.45221803437643e+01dB,-7.58260365727274e+01°)
5.75439937337163e+02	(-1.48973385029723e+01dB,-7.61658468156644e+01°)
6.02559586074364e+02	(-1.52727070042006e+01dB,-7.64816656942485e+01°)
6.30957344480200e+02	(-1.56481250434818e+01dB,-7.67743717770644e+01°)
6.60693448007603e+02	(-1.60234373058657e+01dB,-7.70448719069988e+01°)
6.91830970918944e+02	(-1.63984939084745e+01dB,-7.72941035245012e+01°)
7.24435960074998e+02	(-1.67731504723902e+01dB,-7.75230373222071e+01°)
7.58577575029192e+02	(-1.71472683351964e+01dB,-7.77326800918833e+01°)
7.94328234724290e+02	(-1.75207149139440e+01dB,-7.79240776059555e+01°)
8.31763771102680e+02	(-1.78933642255657e+01dB,-7.80983173564958e+01°)
8.70963589956090e+02	(-1.82650975682198e+01dB,-7.82565309554552e+01°)
9.12010839355920e+02	(-1.86358043625601e+01dB,-7.83998959824484e+01°)
9.54992586021446e+02	(-1.90053831464572e+01dB,-7.85296370521844e+01°)
1.00000000000001e+03	(-1.93737427102056e+01dB,-7.86470258647145e+01°)
1.04712854805091e+03	(-1.97408033518193e+01dB,-7.87533800002805e+01°)
1.09647819614320e+03	(-2.01064982238129e+01dB,-7.88500602290978e+01°)
1.14815362149690e+03	(-2.04707747341705e+01dB,-7.89384661272485e+01°)
1.20226443461743e+03	(-2.08335959554495e+01dB,-7.90200298250373e+01°)
1.25892541179418e+03	(-2.11949419876938e+01dB,-7.90962077651525e+01°)
1.31825673855642e+03	(-2.15548112137081e+01dB,-7.91684704153196e+01°)
1.38038426460290e+03	(-2.19132213800226e+01dB,-7.92382899631515e+01°)
1.44543977074594e+03	(-2.22702104343224e+01dB,-7.93071261173856e+01°)
1.51356124843623e+03	(-2.26258370509696e+01dB,-7.93764102457447e+01°)
1.58489319246113e+03	(-2.29801807810857e+01dB,-7.94475281896979e+01°)
1.65958690743758e+03	(-2.33333417728771e+01dB,-7.95218022032895e+01°)
1.73780082874940e+03	(-2.36854400215179e+01dB,-7.96004725587893e+01°)
1.81970085861001e+03	(-2.40366141256232e+01dB,-7.96846794375643e+01°)
1.90546071796327e+03	(-2.43870195484171e+01dB,-7.97754457721081e+01°)
1.99526231496890e+03	(-2.47368264049580e+01dB,-7.98736617177679e+01°)
2.08929613085406e+03	(-2.50862168207511e+01dB,-7.99800714058557e+01°)
2.18776162394958e+03	(-2.54353819300443e+01dB,-8.00952625621037e+01°)
2.29086765276780e+03	(-2.57845186022989e+01dB,-8.02196594678906e+01°)
2.39883291901952e+03	(-2.61338260011079e+01dB,-8.03535196020757e+01°)
2.51188643150961e+03	(-2.64835020898776e+01dB,-8.04969341376084e+01°)
2.63026799189541e+03	(-2.68337402020126e+01dB,-8.06498322907359e+01°)
2.75422870333820e+03	(-2.71847257898618e+01dB,-8.08119893443755e+01°)
2.88403150312664e+03	(-2.75366334565928e+01dB,-8.09830380037536e+01°)
3.01995172040205e+03	(-2.78896243593535e+01dB,-8.11624826031527e+01°)
3.16227766016842e+03	(-2.82438440518686e+01dB,-8.13497155764694e+01°)
3.31131121482595e+03	(-2.85994208116825e+01dB,-8.15440355369412e+01°)
3.46736850452536e+03	(-2.89564644733339e+01dB,-8.17446662848961e+01°)
3.63078054770106e+03	(-2.93150657655627e+01dB,-8.19507760751989e+01°)
3.80189396320566e+03	(-2.96752961296746e+01dB,-8.21614965236613e+01°)
3.98107170553503e+03	(-3.00372079785742e+01dB,-8.23759406071740e+01°)
4.16869383470341e+03	(-3.04008353424615e+01dB,-8.25932193075199e+01°)
4.36515832240172e+03	(-3.07661948380844e+01dB,-8.28124565550825e+01°)
4.57088189614881e+03	(-3.11332868937021e+01dB,-8.30328022378219e+01°)
4.78630092322645e+03	(-3.15020971611441e+01dB,-8.32534431458144e+01°)
5.01187233627279e+03	(-3.18725980489760e+01dB,-8.34736118167987e+01°)
5.24807460249780e+03	(-3.22447503160347e+01dB,-8.36925933296324e+01°)
5.49540873857632e+03	(-3.26185046717296e+01dB,-8.39097301581726e+01°)
5.75439937337165e+03	(-3.29938033377447e+01dB,-8.41244252471733e+01°)
6.02559586074366e+03	(-3.33705815344662e+01dB,-8.43361435048967e+01°)
6.30957344480202e+03	(-3.37487688640427e+01dB,-8.45444119257536e+01°)
6.60693448007605e+03	(-3.41282905700307e+01dB,-8.47488185624707e+01°)
6.91830970918946e+03	(-3.45090686608001e+01dB,-8.49490105633899e+01°)
7.24435960075000e+03	(-3.48910228900940e+01dB,-8.51446914789397e+01°)
7.58577575029195e+03	(-3.52740715932662e+01dB,-8.53356180243586e+01°)
7.94328234724293e+03	(-3.56581323817916e+01dB,-8.55215964654072e+01°)
8.31763771102683e+03	(-3.60431227016758e+01dB,-8.57024787718049e+01°)
8.70963589956093e+03	(-3.64289602635317e+01dB,-8.58781586608073e+01°)
9.12010839355923e+03	(-3.68155633534160e+01dB,-8.60485676317473e+01°)
9.54992586021450e+03	(-3.72028510341937e+01dB,-8.62136710722116e+01°)
1.00000000000001e+04	(-3.75907432473267e+01dB,-8.63734644982815e+01°)
1.04712854805092e+04	(-3.79791608246982e+01dB,-8.65279699751826e+01°)
1.09647819614320e+04	(-3.83680254194771e+01dB,-8.66772327508336e+01°)
1.14815362149690e+04	(-3.87572593642067e+01dB,-8.68213181231374e+01°)
1.20226443461743e+04	(-3.91467854633185e+01dB,-8.69603085522692e+01°)
1.25892541179419e+04	(-3.95365267262109e+01dB,-8.70943010215206e+01°)
1.31825673855643e+04	(-3.99264060459130e+01dB,-8.72234046442379e+01°)
1.38038426460291e+04	(-4.03163458272315e+01dB,-8.73477385098291e+01°)
1.44543977074595e+04	(-4.07062675671572e+01dB,-8.74674297584834e+01°)
1.51356124843623e+04	(-4.10960913892124e+01dB,-8.75826118719535e+01°)
1.58489319246114e+04	(-4.14857355323495e+01dB,-8.76934231662961e+01°)
1.65958690743759e+04	(-4.18751157939709e+01dB,-8.78000054716869e+01°)
1.73780082874940e+04	(-4.22641449256181e+01dB,-8.79025029841840e+01°)
1.81970085861001e+04	(-4.26527319788747e+01dB,-8.80010612744674e+01°)
1.90546071796328e+04	(-4.30407815980192e+01dB,-8.80958264390483e+01°)
1.99526231496891e+04	(-4.34281932549484e+01dB,-8.81869443801212e+01°)
2.08929613085407e+04	(-4.38148604208404e+01dB,-8.82745602010605e+01°)
2.18776162394959e+04	(-4.42006696679279e+01dB,-8.83588177054845e+01°)
2.29086765276781e+04	(-4.45854996935769e+01dB,-8.84398589887916e+01°)
2.39883291901953e+04	(-4.49692202575926e+01dB,-8.85178241120618e+01°)
2.51188643150962e+04	(-4.53516910222697e+01dB,-8.85928508492181e+01°)
2.63026799189542e+04	(-4.57327602831393e+01dB,-8.86650744993154e+01°)
2.75422870333821e+04	(-4.61122635765878e+01dB,-8.87346277567730e+01°)
2.88403150312665e+04	(-4.64900221485014e+01dB,-8.88016406332855e+01°)
3.01995172040207e+04	(-4.68658412657542e+01dB,-8.88662404260278e+01°)
3.16227766016843e+04	(-4.72395083496441e+01dB,-8.89285517276276e+01°)
3.31131121482597e+04	(-4.76107909072053e+01dB,-8.89886964742063e+01°)
3.46736850452537e+04	(-4.79794342325843e+01dB,-8.90467940286116e+01°)
3.63078054770107e+04	(-4.83451588462326e+01dB,-8.91029612967804e+01°)
3.80189396320568e+04	(-4.87076576343805e+01dB,-8.91573128760077e+01°)
3.98107170553504e+04	(-4.90665926449201e+01dB,-8.92099612347740e+01°)
4.16869383470342e+04	(-4.94215914881794e+01dB,-8.92610169247207e+01°)
4.36515832240173e+04	(-4.97722432818027e+01dB,-8.93105888264096e+01°)
4.57088189614883e+04	(-5.01180940676477e+01dB,-8.93587844316886e+01°)
4.78630092322647e+04	(-5.04586416147334e+01dB,-8.94057101668797e+01°)
5.01187233627281e+04	(-5.07933295051433e+01dB,-8.94514717626792e+01°)
5.24807460249782e+04	(-5.11215403784893e+01dB,-8.94961746787195e+01°)
5.49540873857634e+04	(-5.14425881838887e+01dB,-8.95399245933231e+01°)
5.75439937337167e+04	(-5.17557092547971e+01dB,-8.95828279722719e+01°)
6.02559586074368e+04	(-5.20600519793405e+01dB,-8.96249927346833e+01°)
6.30957344480204e+04	(-5.23546647840952e+01dB,-8.96665290396953e+01°)
6.60693448007608e+04	(-5.26384820785794e+01dB,-8.97075502251266e+01°)
6.91830970918949e+04	(-5.29103077155506e+01dB,-8.97481739393576e+01°)
7.24435960075003e+04	(-5.31687954007781e+01dB,-8.97885235214354e+01°)
7.58577575029197e+04	(-5.34124253243207e+01dB,-8.98287297034515e+01°)
7.94328234724296e+04	(-5.36394760676716e+01dB,-8.98689327359558e+01°)
8.31763771102686e+04	(-5.38479905443770e+01dB,-8.99092850751698e+01°)
8.70963589956096e+04	(-5.40357343217218e+01dB,-8.99499548256624e+01°)
9.12010839355926e+04	(-5.42001440962960e+01dB,-8.99911302127453e+01°)
9.54992586021453e+04	(-5.43382632776719e+01dB,-9.00330254793019e+01°)
1.00000000000002e+05	(-5.44466604482531e+01dB,-9.00758887852914e+01°)
1.04712854805092e+05	(-5.45213247155650e+01dB,-9.01200129738237e+01°)
1.09647819614321e+05	(-5.45575293311599e+01dB,-9.01657505228689e+01°)
1.14815362149690e+05	(-5.45496508713308e+01dB,-9.02135347461643e+01°)
1.20226443461744e+05	(-5.44909248109462e+01dB,-9.02639105608007e+01°)
1.25892541179419e+05	(-5.43731077729199e+01dB,-9.03175803218431e+01°)
1.31825673855643e+05	(-5.41859989360650e+01dB,-9.03754741699847e+01°)
1.38038426460291e+05	(-5.39167418770278e+01dB,-9.04388617852425e+01°)
1.44543977074595e+05	(-5.35487709248322e+01dB,-9.05095372197682e+01°)
1.51356124843624e+05	(-5.30601556573177e+01dB,-9.05901396079053e+01°)
1.58489319246114e+05	(-5.24208701638237e+01dB,-9.06847429250893e+01°)
1.65958690743759e+05	(-5.15880102696837e+01dB,-9.08000215512022e+01°)
1.73780082874941e+05	(-5.04967539333487e+01dB,-9.09477761398671e+01°)
1.81970085861002e+05	(-4.90414709925227e+01dB,-9.11511215725550e+01°)
1.90546071796328e+05	(-4.70303193625629e+01dB,-9.14625099699314e+01°)
1.99526231496892e+05	(-4.40502912756029e+01dB,-9.20323617611349e+01°)
2.08929613085408e+05	(-3.88811901909239e+01dB,-9.35397224878024e+01°)
2.18776162394960e+05	(-2.14380759637689e+01dB,-1.15278026025281e+02°)
2.29086765276782e+05	(-3.70084976862931e+01dB,9.36170248452561e+01°)
2.39883291901954e+05	(-4.37946717533053e+01dB,9.13738685011436e+01°)
2.51188643150963e+05	(-4.75731768647562e+01dB,9.06603949958208e+01°)
2.63026799189543e+05	(-5.01299572976953e+01dB,9.02876496786592e+01°)
2.75422870333822e+05	(-5.19709837949449e+01dB,9.00427273617820e+01°)
2.88403150312666e+05	(-5.32983098273709e+01dB,8.98569517447876e+01°)
3.01995172040208e+05	(-5.41980930186983e+01dB,8.97003910862505e+01°)
3.16227766016844e+05	(-5.46955270463212e+01dB,8.95564282763369e+01°)
3.31131121482598e+05	(-5.47704773672664e+01dB,8.94127560756420e+01°)
3.46736850452539e+05	(-5.43526682310520e+01dB,8.92560375270126e+01°)
3.63078054770109e+05	(-5.32916154889532e+01dB,8.90645095683801e+01°)
3.80189396320569e+05	(-5.12615480227527e+01dB,8.87864642584924e+01°)
3.98107170553505e+05	(-4.73911092968219e+01dB,8.82306523789185e+01°)
4.16869383470344e+05	(-3.72494384250387e+01dB,8.53659254531409e+01°)
4.36515832240175e+05	(-4.06815878496949e+01dB,-8.80535512663341e+01°)
4.57088189614884e+05	(-4.92812380673707e+01dB,-8.98657846347467e+01°)
4.78630092322648e+05	(-5.31227299647888e+01dB,-9.03572661052178e+01°)
