Freq.	V(n028)/V(n012)
1.00000000000000e+01	(-2.79598019338623e-03dB,-1.13723640782459e-01°)
1.00577306300174e+01	(-2.79617635015545e-03dB,-1.14380172803776e-01°)
1.01157945425990e+01	(-2.79637477885410e-03dB,-1.15040494995355e-01°)
1.01741936618061e+01	(-2.79657550492178e-03dB,-1.15704629238427e-01°)
1.02329299228075e+01	(-2.79677855529520e-03dB,-1.16372597539095e-01°)
1.02920052719443e+01	(-2.79698395672779e-03dB,-1.17044422031604e-01°)
1.03514216667934e+01	(-2.79719173706497e-03dB,-1.17720124976547e-01°)
1.04111810762334e+01	(-2.79740192301676e-03dB,-1.18399728764715e-01°)
1.04712854805090e+01	(-2.79761454298904e-03dB,-1.19083255914885e-01°)
1.05317368712972e+01	(-2.79782962482530e-03dB,-1.19770729076741e-01°)
1.05925372517729e+01	(-2.79804719698160e-03dB,-1.20462171030202e-01°)
1.06536886366756e+01	(-2.79826728924324e-03dB,-1.21157604685944e-01°)
1.07151930523761e+01	(-2.79848992901387e-03dB,-1.21857053089162e-01°)
1.07770525369432e+01	(-2.79871514763477e-03dB,-1.22560539415196e-01°)
1.08392691402120e+01	(-2.79894297414369e-03dB,-1.23268086975173e-01°)
1.09018449238513e+01	(-2.79917343830667e-03dB,-1.23979719214631e-01°)
1.09647819614319e+01	(-2.79940657113898e-03dB,-1.24695459713601e-01°)
1.10280823384955e+01	(-2.79964240356713e-03dB,-1.25415332188698e-01°)
1.10917481526240e+01	(-2.79988096694982e-03dB,-1.26139360493186e-01°)
1.11557815135085e+01	(-2.80012229241132e-03dB,-1.26867568618821e-01°)
1.12201845430196e+01	(-2.80036641285278e-03dB,-1.27599980694335e-01°)
1.12849593752776e+01	(-2.80061335985960e-03dB,-1.28336620989496e-01°)
1.13501081567232e+01	(-2.80086316626542e-03dB,-1.29077513913175e-01°)
1.14156330461885e+01	(-2.80111586542865e-03dB,-1.29822684015216e-01°)
1.14815362149688e+01	(-2.80137149025723e-03dB,-1.30572155987705e-01°)
1.15478198468946e+01	(-2.80163007541568e-03dB,-1.31325954664202e-01°)
1.16144861384034e+01	(-2.80189165472066e-03dB,-1.32084105022555e-01°)
1.16815372986133e+01	(-2.80215626306438e-03dB,-1.32846632184395e-01°)
1.17489755493953e+01	(-2.80242393492425e-03dB,-1.33613561417265e-01°)
1.18168031254479e+01	(-2.80269470669350e-03dB,-1.34384918132395e-01°)
1.18850222743702e+01	(-2.80296861450005e-03dB,-1.35160727889339e-01°)
1.19536352567372e+01	(-2.80324569332200e-03dB,-1.35941016395990e-01°)
1.20226443461742e+01	(-2.80352598025871e-03dB,-1.36725809507326e-01°)
1.20920518294321e+01	(-2.80380951287158e-03dB,-1.37515133227207e-01°)
1.21618600064637e+01	(-2.80409632855902e-03dB,-1.38309013710624e-01°)
1.22320711904993e+01	(-2.80438646606993e-03dB,-1.39107477262586e-01°)
1.23026877081238e+01	(-2.80467996234260e-03dB,-1.39910550341586e-01°)
1.23737118993535e+01	(-2.80497685783721e-03dB,-1.40718259556742e-01°)
1.24451461177139e+01	(-2.80527719058502e-03dB,-1.41530631672632e-01°)
1.25169927303173e+01	(-2.80558100117259e-03dB,-1.42347693606962e-01°)
1.25892541179417e+01	(-2.80588833008908e-03dB,-1.43169472433127e-01°)
1.26619326751095e+01	(-2.80619921739730e-03dB,-1.43995995381753e-01°)
1.27350308101666e+01	(-2.80651370456745e-03dB,-1.44827289839464e-01°)
1.28085509453628e+01	(-2.80683183322991e-03dB,-1.45663383351670e-01°)
1.28824955169314e+01	(-2.80715364588610e-03dB,-1.46504303622353e-01°)
1.29568669751702e+01	(-2.80747918487638e-03dB,-1.47350078515735e-01°)
1.30316677845230e+01	(-2.80780849305720e-03dB,-1.48200736056889e-01°)
1.31069004236608e+01	(-2.80814161479853e-03dB,-1.49056304432112e-01°)
1.31825673855641e+01	(-2.80847859369672e-03dB,-1.49916811991301e-01°)
1.32586711776056e+01	(-2.80881947478351e-03dB,-1.50782287247037e-01°)
1.33352143216333e+01	(-2.80916430292475e-03dB,-1.51652758877470e-01°)
1.34121993540537e+01	(-2.80951312399240e-03dB,-1.52528255725443e-01°)
1.34896288259166e+01	(-2.80986598412758e-03dB,-1.53408806800769e-01°)
1.35675053029987e+01	(-2.81022293017367e-03dB,-1.54294441280706e-01°)
1.36458313658893e+01	(-2.81058400938598e-03dB,-1.55185188510586e-01°)
1.37246096100757e+01	(-2.81094926976163e-03dB,-1.56081078005314e-01°)
1.38038426460289e+01	(-2.81131875950226e-03dB,-1.56982139450508e-01°)
1.38835330992905e+01	(-2.81169252755423e-03dB,-1.57888402702782e-01°)
1.39636836105594e+01	(-2.81207062385363e-03dB,-1.58799897790662e-01°)
1.40442968357795e+01	(-2.81245309855264e-03dB,-1.59716654916807e-01°)
1.41253754462276e+01	(-2.81284000160283e-03dB,-1.60638704458167e-01°)
1.42069221286019e+01	(-2.81323138514550e-03dB,-1.61566076966275e-01°)
1.42889395851111e+01	(-2.81362730049720e-03dB,-1.62498803169872e-01°)
1.43714305335640e+01	(-2.81402779981856e-03dB,-1.63436913974940e-01°)
1.44543977074593e+01	(-2.81443293722844e-03dB,-1.64380440464887e-01°)
1.45378438560767e+01	(-2.81484276571326e-03dB,-1.65329413903795e-01°)
1.46217717445672e+01	(-2.81525733983853e-03dB,-1.66283865735406e-01°)
1.47061841540457e+01	(-2.81567671444472e-03dB,-1.67243827585548e-01°)
1.47910838816821e+01	(-2.81610094487201e-03dB,-1.68209331262352e-01°)
1.48764737407951e+01	(-2.81653008786801e-03dB,-1.69180408757082e-01°)
1.49623565609444e+01	(-2.81696420028643e-03dB,-1.70157092246219e-01°)
1.50487351880252e+01	(-2.81740333893473e-03dB,-1.71139414092158e-01°)
1.51356124843621e+01	(-2.81784756285931e-03dB,-1.72127406843356e-01°)
1.52229913288043e+01	(-2.81829693031365e-03dB,-1.73121103236939e-01°)
1.53108746168204e+01	(-2.81875150124420e-03dB,-1.74120536198383e-01°)
1.53992652605950e+01	(-2.81921133623411e-03dB,-1.75125738843037e-01°)
1.54881661891249e+01	(-2.81967649552503e-03dB,-1.76136744478537e-01°)
1.55775803483161e+01	(-2.82014704078538e-03dB,-1.77153586603869e-01°)
1.56675107010816e+01	(-2.82062303490771e-03dB,-1.78176298911255e-01°)
1.57579602274393e+01	(-2.82110454059263e-03dB,-1.79204915287966e-01°)
1.58489319246112e+01	(-2.82159162179867e-03dB,-1.80239469816457e-01°)
1.59404288071222e+01	(-2.82208434326285e-03dB,-1.81279996775903e-01°)
1.60324539069005e+01	(-2.82258277051322e-03dB,-1.82326530643371e-01°)
1.61250102733775e+01	(-2.82308696843155e-03dB,-1.83379106095860e-01°)
1.62181009735894e+01	(-2.82359700508487e-03dB,-1.84437758008742e-01°)
1.63117290922785e+01	(-2.82411294740198e-03dB,-1.85502521460303e-01°)
1.64058977319955e+01	(-2.82463486391782e-03dB,-1.86573431730440e-01°)
1.65006100132024e+01	(-2.82516282426320e-03dB,-1.87650524302529e-01°)
1.65958690743757e+01	(-2.82569689767055e-03dB,-1.88733834865699e-01°)
1.66916780721107e+01	(-2.82623715557752e-03dB,-1.89823399314105e-01°)
1.67880401812257e+01	(-2.82678366897900e-03dB,-1.90919253749799e-01°)
1.68849585948676e+01	(-2.82733651054840e-03dB,-1.92021434482791e-01°)
1.69824365246175e+01	(-2.82789575393345e-03dB,-1.93129978032348e-01°)
1.70804772005972e+01	(-2.82846147313496e-03dB,-1.94244921129385e-01°)
1.71790838715760e+01	(-2.82903374268531e-03dB,-1.95366300716336e-01°)
1.72782598050787e+01	(-2.82961263902399e-03dB,-1.96494153948596e-01°)
1.73780082874938e+01	(-2.83019823834745e-03dB,-1.97628518196811e-01°)
1.74783326241823e+01	(-2.83079061855670e-03dB,-1.98769431046464e-01°)
1.75792361395870e+01	(-2.83138985798783e-03dB,-1.99916930300566e-01°)
1.76807221773433e+01	(-2.83199603631300e-03dB,-2.01071053979918e-01°)
1.77827941003893e+01	(-2.83260923375908e-03dB,-2.02231840325109e-01°)
1.78854552910778e+01	(-2.83322953171827e-03dB,-2.03399327797039e-01°)
1.79887091512880e+01	(-2.83385701252911e-03dB,-2.04573555078972e-01°)
1.80925591025383e+01	(-2.83449175852249e-03dB,-2.05754561077688e-01°)
1.81970085860999e+01	(-2.83513385505830e-03dB,-2.06942384923500e-01°)
1.83020610631107e+01	(-2.83578338626945e-03dB,-2.08137065973774e-01°)
1.84077200146897e+01	(-2.83644043866771e-03dB,-2.09338643812266e-01°)
1.85139889420528e+01	(-2.83710509883048e-03dB,-2.10547158251684e-01°)
1.86208713666288e+01	(-2.83777745579216e-03dB,-2.11762649333669e-01°)
1.87283708301756e+01	(-2.83845759831034e-03dB,-2.12985157331890e-01°)
1.88364908948981e+01	(-2.83914561615651e-03dB,-2.14214722752237e-01°)
1.89452351435660e+01	(-2.83984160065719e-03dB,-2.15451386334280e-01°)
1.90546071796326e+01	(-2.84054564419141e-03dB,-2.16695189052586e-01°)
1.91646106273540e+01	(-2.84125784004499e-03dB,-2.17946172118420e-01°)
1.92752491319095e+01	(-2.84197828314852e-03dB,-2.19204376980456e-01°)
1.93865263595222e+01	(-2.84270706807960e-03dB,-2.20469845327556e-01°)
1.94984459975806e+01	(-2.84344429138762e-03dB,-2.21742619088551e-01°)
1.96110117547606e+01	(-2.84419005175675e-03dB,-2.23022740433881e-01°)
1.97242273611487e+01	(-2.84494444740919e-03dB,-2.24310251777994e-01°)
1.98380965683652e+01	(-2.84570757798425e-03dB,-2.25605195780271e-01°)
1.99526231496889e+01	(-2.84647954554544e-03dB,-2.26907615345397e-01°)
2.00678109001820e+01	(-2.84726045205217e-03dB,-2.28217553626519e-01°)
2.01836636368157e+01	(-2.84805040020184e-03dB,-2.29535054026006e-01°)
2.03001851985970e+01	(-2.84884949566305e-03dB,-2.30860160195701e-01°)
2.04173794466954e+01	(-2.84965784470253e-03dB,-2.32192916039788e-01°)
2.05352502645716e+01	(-2.85047555329961e-03dB,-2.33533365716725e-01°)
2.06538015581054e+01	(-2.85130273005657e-03dB,-2.34881553639002e-01°)
2.07730372557258e+01	(-2.85213948535359e-03dB,-2.36237524475096e-01°)
2.08929613085405e+01	(-2.85298592983620e-03dB,-2.37601323151829e-01°)
2.10135776904676e+01	(-2.85384217525551e-03dB,-2.38972994855640e-01°)
2.11348903983666e+01	(-2.85470833501125e-03dB,-2.40352585033164e-01°)
2.12569034521712e+01	(-2.85558452487050e-03dB,-2.41740139393046e-01°)
2.13796208950225e+01	(-2.85647085951035e-03dB,-2.43135703908959e-01°)
2.15030467934027e+01	(-2.85736745815532e-03dB,-2.44539324818174e-01°)
2.16271852372704e+01	(-2.85827443811228e-03dB,-2.45951048626541e-01°)
2.17520403401954e+01	(-2.85919192092013e-03dB,-2.47370922106817e-01°)
2.18776162394957e+01	(-2.86012002638047e-03dB,-2.48798992303239e-01°)
2.20039170963742e+01	(-2.86105887965558e-03dB,-2.50235306529668e-01°)
2.21309470960565e+01	(-2.86200860360133e-03dB,-2.51679912374814e-01°)
2.22587104479302e+01	(-2.86296932475479e-03dB,-2.53132857700917e-01°)
2.23872113856836e+01	(-2.86394117042097e-03dB,-2.54594190646750e-01°)
2.25164541674464e+01	(-2.86492426888219e-03dB,-2.56063959629159e-01°)
2.26464430759308e+01	(-2.86591875086430e-03dB,-2.57542213343936e-01°)
2.27771824185734e+01	(-2.86692474880067e-03dB,-2.59029000767875e-01°)
2.29086765276779e+01	(-2.86794239456240e-03dB,-2.60524371161319e-01°)
2.30409297605586e+01	(-2.86897182434618e-03dB,-2.62028374067568e-01°)
2.31739464996850e+01	(-2.87001317426777e-03dB,-2.63541059316683e-01°)
2.33077311528266e+01	(-2.87106658211189e-03dB,-2.65062477026201e-01°)
2.34422881531994e+01	(-2.87213218772288e-03dB,-2.66592677602632e-01°)
2.35776219596127e+01	(-2.87321013155872e-03dB,-2.68131711743964e-01°)
2.37137370566168e+01	(-2.87430055760235e-03dB,-2.69679630439717e-01°)
2.38506379546513e+01	(-2.87540360988313e-03dB,-2.71236484974463e-01°)
2.39883291901951e+01	(-2.87651943483442e-03dB,-2.72802326928459e-01°)
2.41268153259165e+01	(-2.87764817973383e-03dB,-2.74377208179932e-01°)
2.42661009508244e+01	(-2.87878999482148e-03dB,-2.75961180905995e-01°)
2.44061906804200e+01	(-2.87994503098108e-03dB,-2.77554297585279e-01°)
2.45470891568505e+01	(-2.88111344198078e-03dB,-2.79156610998611e-01°)
2.46888010490623e+01	(-2.88229538152326e-03dB,-2.80768174232601e-01°)
2.48313310529559e+01	(-2.88349100770820e-03dB,-2.82389040678625e-01°)
2.49746838915417e+01	(-2.88470047746632e-03dB,-2.84019264037777e-01°)
2.51188643150960e+01	(-2.88592395230861e-03dB,-2.85658898319699e-01°)
2.52638771013192e+01	(-2.88716159382339e-03dB,-2.87307997846416e-01°)
2.54097270554933e+01	(-2.88841356619791e-03dB,-2.88966617253228e-01°)
2.55564190106416e+01	(-2.88968003531545e-03dB,-2.90634811490731e-01°)
2.57039578276889e+01	(-2.89096116944982e-03dB,-2.92312635826467e-01°)
2.58523483956221e+01	(-2.89225713763616e-03dB,-2.94000145847265e-01°)
2.60015956316530e+01	(-2.89356811235547e-03dB,-2.95697397460239e-01°)
2.61517044813802e+01	(-2.89489426696389e-03dB,-2.97404446895514e-01°)
2.63026799189541e+01	(-2.89623577704898e-03dB,-2.99121350707570e-01°)
2.64545269472407e+01	(-2.89759282088406e-03dB,-3.00848165776940e-01°)
2.66072505979884e+01	(-2.89896557807482e-03dB,-3.02584949312684e-01°)
2.67608559319936e+01	(-2.90035423079893e-03dB,-3.04331758853879e-01°)
2.69153480392694e+01	(-2.90175896265324e-03dB,-3.06088652271739e-01°)
2.70707320392138e+01	(-2.90317995997635e-03dB,-3.07855687771205e-01°)
2.72270130807794e+01	(-2.90461741143092e-03dB,-3.09632923892958e-01°)
2.73841963426439e+01	(-2.90607150700524e-03dB,-3.11420419515941e-01°)
2.75422870333819e+01	(-2.90754243975928e-03dB,-3.13218233858390e-01°)
2.77012903916376e+01	(-2.90903040497484e-03dB,-3.15026426480218e-01°)
2.78612116862980e+01	(-2.91053559923910e-03dB,-3.16845057285452e-01°)
2.80220562166677e+01	(-2.91205822223313e-03dB,-3.18674186523267e-01°)
2.81838293126448e+01	(-2.91359847601611e-03dB,-3.20513874790726e-01°)
2.83465363348970e+01	(-2.91515656477355e-03dB,-3.22364183034355e-01°)
2.85101826750394e+01	(-2.91673269432727e-03dB,-3.24225172552784e-01°)
2.86747737558135e+01	(-2.91832707408015e-03dB,-3.26096904997760e-01°)
2.88403150312664e+01	(-2.91993991535786e-03dB,-3.27979442376967e-01°)
2.90068119869318e+01	(-2.92157143151214e-03dB,-3.29872847055982e-01°)
2.91742701400120e+01	(-2.92322183957900e-03dB,-3.31777181759862e-01°)
2.93426950395600e+01	(-2.92489135778127e-03dB,-3.33692509575928e-01°)
2.95120922666642e+01	(-2.92658020727075e-03dB,-3.35618893955490e-01°)
2.96824674346327e+01	(-2.92828861217164e-03dB,-3.37556398715584e-01°)
2.98538261891799e+01	(-2.93001679834095e-03dB,-3.39505088041965e-01°)
3.00261742086130e+01	(-2.93176499565188e-03dB,-3.41465026490063e-01°)
3.01995172040205e+01	(-2.93353343562942e-03dB,-3.43436278988202e-01°)
3.03738609194614e+01	(-2.93532235223947e-03dB,-3.45418910839365e-01°)
3.05492111321555e+01	(-2.93713198267309e-03dB,-3.47412987723015e-01°)
3.07255736526748e+01	(-2.93896256714107e-03dB,-3.49418575697600e-01°)
3.09029543251362e+01	(-2.94081434760731e-03dB,-3.51435741202949e-01°)
3.10813590273951e+01	(-2.94268756975002e-03dB,-3.53464551061885e-01°)
3.12607936712399e+01	(-2.94458248243109e-03dB,-3.55505072482632e-01°)
3.14412642025883e+01	(-2.94649933646241e-03dB,-3.57557373061446e-01°)
3.16227766016841e+01	(-2.94843838522413e-03dB,-3.59621520784763e-01°)
3.18053368832956e+01	(-2.95039988629691e-03dB,-3.61697584030613e-01°)
3.19889510969143e+01	(-2.95238409952395e-03dB,-3.63785631572010e-01°)
3.21736253269564e+01	(-2.95439128822740e-03dB,-3.65885732578303e-01°)
3.23593656929632e+01	(-2.95642171792537e-03dB,-3.67997956618298e-01°)
3.25461783498050e+01	(-2.95847565810986e-03dB,-3.70122373661756e-01°)
3.27340694878842e+01	(-2.96055338074475e-03dB,-3.72259054082422e-01°)
3.29230453333410e+01	(-2.96265516113110e-03dB,-3.74408068659800e-01°)
3.31131121482595e+01	(-2.96478127771620e-03dB,-3.76569488581810e-01°)
3.33042762308750e+01	(-2.96693201311224e-03dB,-3.78743385446650e-01°)
3.34965439157832e+01	(-2.96910765142228e-03dB,-3.80929831266205e-01°)
3.36899215741495e+01	(-2.97130848136579e-03dB,-3.83128898467234e-01°)
3.38844156139207e+01	(-2.97353479462904e-03dB,-3.85340659894589e-01°)
3.40800324800369e+01	(-2.97578688583332e-03dB,-3.87565188813201e-01°)
3.42767786546454e+01	(-2.97806505427135e-03dB,-3.89802558910431e-01°)
3.44746606573154e+01	(-2.98036960124093e-03dB,-3.92052844299053e-01°)
3.46736850452536e+01	(-2.98270083258783e-03dB,-3.94316119519107e-01°)
3.48738584135223e+01	(-2.98505905704658e-03dB,-3.96592459540701e-01°)
3.50751873952572e+01	(-2.98744458713955e-03dB,-3.98881939766342e-01°)
3.52776786618878e+01	(-2.98985773873900e-03dB,-4.01184636033601e-01°)
3.54813389233580e+01	(-2.99229883169318e-03dB,-4.03500624617321e-01°)
3.56861749283486e+01	(-2.99476819019095e-03dB,-4.05829982232126e-01°)
3.58921934645010e+01	(-2.99726614087110e-03dB,-4.08172786035554e-01°)
3.60994013586421e+01	(-2.99979301550894e-03dB,-4.10529113629745e-01°)
3.63078054770106e+01	(-3.00234914826988e-03dB,-4.12899043064872e-01°)
3.65174127254842e+01	(-3.00493487756167e-03dB,-4.15282652841153e-01°)
3.67282300498089e+01	(-3.00755054684276e-03dB,-4.17680021911248e-01°)
3.69402644358288e+01	(-3.01019650285407e-03dB,-4.20091229683416e-01°)
3.71535229097177e+01	(-3.01287309605510e-03dB,-4.22516356023952e-01°)
3.73680125382121e+01	(-3.01558068047148e-03dB,-4.24955481259991e-01°)
3.75837404288449e+01	(-3.01831961549314e-03dB,-4.27408686181517e-01°)
3.78007137301816e+01	(-3.02109026452571e-03dB,-4.29876052044498e-01°)
3.80189396320566e+01	(-3.02389299442914e-03dB,-4.32357660573839e-01°)
3.82384253658118e+01	(-3.02672817627304e-03dB,-4.34853593965620e-01°)
3.84591782045359e+01	(-3.02959618639202e-03dB,-4.37363934889894e-01°)
3.86812054633057e+01	(-3.03249740437249e-03dB,-4.39888766493645e-01°)
3.89045144994286e+01	(-3.03543221444754e-03dB,-4.42428172403328e-01°)
3.91291127126858e+01	(-3.03840100671250e-03dB,-4.44982236727293e-01°)
3.93550075455783e+01	(-3.04140417386726e-03dB,-4.47551044059496e-01°)
3.95822064835728e+01	(-3.04444211334914e-03dB,-4.50134679481606e-01°)
3.98107170553503e+01	(-3.04751522898352e-03dB,-4.52733228565536e-01°)
4.00405468330552e+01	(-3.05062392677398e-03dB,-4.55346777377235e-01°)
4.02717034325465e+01	(-3.05376861968138e-03dB,-4.57975412478436e-01°)
4.05041945136499e+01	(-3.05694972409600e-03dB,-4.60619220930394e-01°)
4.07380277804118e+01	(-3.06016766125859e-03dB,-4.63278290296363e-01°)
4.09732109813547e+01	(-3.06342285846429e-03dB,-4.65952708644213e-01°)
4.12097519097336e+01	(-3.06671574607601e-03dB,-4.68642564550128e-01°)
4.14476584037945e+01	(-3.07004676128960e-03dB,-4.71347947100552e-01°)
4.16869383470341e+01	(-3.07341634528036e-03dB,-4.74068945895996e-01°)
4.19275996684611e+01	(-3.07682494417644e-03dB,-4.76805651053489e-01°)
4.21696503428588e+01	(-3.08027301007852e-03dB,-4.79558153209644e-01°)
4.24130983910494e+01	(-3.08376100010962e-03dB,-4.82326543523573e-01°)
4.26579518801599e+01	(-3.08728937636114e-03dB,-4.85110913680129e-01°)
4.29042189238891e+01	(-3.09085860628937e-03dB,-4.87911355892837e-01°)
4.31519076827771e+01	(-3.09446916255246e-03dB,-4.90727962906976e-01°)
4.34010263644750e+01	(-3.09812152445171e-03dB,-4.93560828002146e-01°)
4.36515832240172e+01	(-3.10181617523051e-03dB,-4.96410044996226e-01°)
4.39035865640951e+01	(-3.10555360532240e-03dB,-4.99275708247543e-01°)
4.41570447353319e+01	(-3.10933430942436e-03dB,-5.02157912658858e-01°)
4.44119661365595e+01	(-3.11315878836822e-03dB,-5.05056753679913e-01°)
4.46683592150970e+01	(-3.11702754945165e-03dB,-5.07972327310569e-01°)
4.49262324670300e+01	(-3.12094110492363e-03dB,-5.10904730104397e-01°)
4.51855944374929e+01	(-3.12489997373057e-03dB,-5.13854059171369e-01°)
4.54464537209515e+01	(-3.12890468042046e-03dB,-5.16820412181319e-01°)
4.57088189614882e+01	(-3.13295575564453e-03dB,-5.19803887367281e-01°)
4.59726988530879e+01	(-3.13705373581874e-03dB,-5.22804583528520e-01°)
4.62381021399267e+01	(-3.14119916508110e-03dB,-5.25822600033534e-01°)
4.65050376166613e+01	(-3.14539259195591e-03dB,-5.28858036824040e-01°)
4.67735141287205e+01	(-3.14963457200660e-03dB,-5.31910994417773e-01°)
4.70435405725983e+01	(-3.15392566782718e-03dB,-5.34981573911626e-01°)
4.73151258961488e+01	(-3.15826644794633e-03dB,-5.38069876985473e-01°)
4.75882790988824e+01	(-3.16265748720277e-03dB,-5.41176005905259e-01°)
4.78630092322646e+01	(-3.16709936760096e-03dB,-5.44300063526311e-01°)
4.81393254000152e+01	(-3.17159267843460e-03dB,-5.47442153296694e-01°)
4.84172367584107e+01	(-3.17613801454452e-03dB,-5.50602379260953e-01°)
4.86967525165871e+01	(-3.18073597778019e-03dB,-5.53780846063325e-01°)
4.89778819368454e+01	(-3.18538717837059e-03dB,-5.56977658950814e-01°)
4.92606343349585e+01	(-3.19009223214022e-03dB,-5.60192923777344e-01°)
4.95450190804798e+01	(-3.19485176211533e-03dB,-5.63426747006958e-01°)
4.98310455970537e+01	(-3.19966640068001e-03dB,-5.66679235716686e-01°)
5.01187233627280e+01	(-3.20453678392716e-03dB,-5.69950497601533e-01°)
5.04080619102677e+01	(-3.20946355783145e-03dB,-5.73240640976574e-01°)
5.06990708274712e+01	(-3.21444737556380e-03dB,-5.76549774781113e-01°)
5.09917597574878e+01	(-3.21948889725889e-03dB,-5.79878008582377e-01°)
5.12861383991373e+01	(-3.22458879077058e-03dB,-5.83225452579066e-01°)
