Freq.	V(n028)/V(n012)
1.00000000000000e+01	(-2.79598735529137e-03dB,-1.13723633143311e-01°)
1.00577306300174e+01	(-2.79618359491736e-03dB,-1.14380165120273e-01°)
1.01157945425990e+01	(-2.79638210754836e-03dB,-1.15040487267180e-01°)
1.01741936618061e+01	(-2.79658291848989e-03dB,-1.15704621465339e-01°)
1.02329299228075e+01	(-2.79678605472977e-03dB,-1.16372589720815e-01°)
1.02920052719443e+01	(-2.79699154295392e-03dB,-1.17044414167938e-01°)
1.03514216667934e+01	(-2.79719941113507e-03dB,-1.17720117067150e-01°)
1.04111810762334e+01	(-2.79740968593408e-03dB,-1.18399720809367e-01°)
1.04712854805090e+01	(-2.79762239582336e-03dB,-1.19083247913239e-01°)
1.05317368712972e+01	(-2.79783756854803e-03dB,-1.19770721028623e-01°)
1.05925372517729e+01	(-2.79805523272232e-03dB,-1.20462162935294e-01°)
1.06536886366756e+01	(-2.79827541804474e-03dB,-1.21157596543921e-01°)
1.07151930523761e+01	(-2.79849815190639e-03dB,-1.21857044899845e-01°)
1.07770525369432e+01	(-2.79872346574115e-03dB,-1.22560531178251e-01°)
1.08392691402120e+01	(-2.79895138860704e-03dB,-1.23268078690288e-01°)
1.09018449238513e+01	(-2.79918195019196e-03dB,-1.23979710881571e-01°)
1.09647819614319e+01	(-2.79941518157098e-03dB,-1.24695451332086e-01°)
1.10280823384955e+01	(-2.79965111371597e-03dB,-1.25415323758371e-01°)
1.10917481526240e+01	(-2.79988977794026e-03dB,-1.26139352013858e-01°)
1.11557815135085e+01	(-2.80013120540962e-03dB,-1.26867560090153e-01°)
1.12201845430196e+01	(-2.80037542908018e-03dB,-1.27599972116011e-01°)
1.12849593752776e+01	(-2.80062248050262e-03dB,-1.28336612361254e-01°)
1.13501081567232e+01	(-2.80087239249321e-03dB,-1.29077505234730e-01°)
1.14156330461885e+01	(-2.80112519853673e-03dB,-1.29822675286216e-01°)
1.14815362149688e+01	(-2.80138093138869e-03dB,-1.30572147207932e-01°)
1.15478198468946e+01	(-2.80163962591140e-03dB,-1.31325945833271e-01°)
1.16144861384034e+01	(-2.80190131579704e-03dB,-1.32084096140196e-01°)
1.16815372986133e+01	(-2.80216603596678e-03dB,-1.32846623250348e-01°)
1.17489755493953e+01	(-2.80243382100029e-03dB,-1.33613552431188e-01°)
1.18168031254479e+01	(-2.80270470726860e-03dB,-1.34384909093990e-01°)
1.18850222743702e+01	(-2.80297873090832e-03dB,-1.35160718798236e-01°)
1.19536352567372e+01	(-2.80325592687439e-03dB,-1.35941007251927e-01°)
1.20226443461742e+01	(-2.80353633229126e-03dB,-1.36725800310000e-01°)
1.20920518294321e+01	(-2.80381998479267e-03dB,-1.37515123976287e-01°)
1.21618600064637e+01	(-2.80410692166803e-03dB,-1.38309004405846e-01°)
1.22320711904993e+01	(-2.80439718193249e-03dB,-1.39107467903486e-01°)
1.23026877081238e+01	(-2.80469080220502e-03dB,-1.39910540928013e-01°)
1.23737118993535e+01	(-2.80498782328635e-03dB,-1.40718250088267e-01°)
1.24451461177139e+01	(-2.80528828295691e-03dB,-1.41530622148975e-01°)
1.25169927303173e+01	(-2.80559222200584e-03dB,-1.42347684027777e-01°)
1.25892541179417e+01	(-2.80589968088180e-03dB,-1.43169462798055e-01°)
1.26619326751095e+01	(-2.80621069961767e-03dB,-1.43995985690486e-01°)
1.27350308101666e+01	(-2.80652531973770e-03dB,-1.44827280091685e-01°)
1.28085509453628e+01	(-2.80684358289346e-03dB,-1.45663373547040e-01°)
1.28824955169314e+01	(-2.80716553160183e-03dB,-1.46504293760513e-01°)
1.29568669751702e+01	(-2.80749120823307e-03dB,-1.47350068596333e-01°)
1.30316677845230e+01	(-2.80782065562915e-03dB,-1.48200726079629e-01°)
1.31069004236608e+01	(-2.80815391819767e-03dB,-1.49056294396631e-01°)
1.31825673855641e+01	(-2.80849103956874e-03dB,-1.49916801897245e-01°)
1.32586711776056e+01	(-2.80883206478665e-03dB,-1.50782277094035e-01°)
1.33352143216333e+01	(-2.80917703870662e-03dB,-1.51652748665203e-01°)
1.34121993540537e+01	(-2.80952600723921e-03dB,-1.52528245453544e-01°)
1.34896288259166e+01	(-2.80987901656220e-03dB,-1.53408796468872e-01°)
1.35675053029987e+01	(-2.81023611353150e-03dB,-1.54294430888473e-01°)
1.36458313658893e+01	(-2.81059734540146e-03dB,-1.55185178057648e-01°)
1.37246096100757e+01	(-2.81096276018464e-03dB,-1.56081067491314e-01°)
1.38038426460289e+01	(-2.81133240610679e-03dB,-1.56982128875093e-01°)
1.38835330992905e+01	(-2.81170633220784e-03dB,-1.57888392065548e-01°)
1.39636836105594e+01	(-2.81208458833996e-03dB,-1.58799887091279e-01°)
1.40442968357795e+01	(-2.81246722473830e-03dB,-1.59716644154864e-01°)
1.41253754462276e+01	(-2.81285429135730e-03dB,-1.60638693633327e-01°)
1.42069221286019e+01	(-2.81324584038747e-03dB,-1.61566066078122e-01°)
1.42889395851111e+01	(-2.81364192314922e-03dB,-1.62498792218021e-01°)
1.43714305335640e+01	(-2.81404259175592e-03dB,-1.63436902959076e-01°)
1.44543977074593e+01	(-2.81444790045955e-03dB,-1.64380429384557e-01°)
1.45378438560767e+01	(-2.81485790221660e-03dB,-1.65329402758645e-01°)
1.46217717445672e+01	(-2.81527265160998e-03dB,-1.66283854525050e-01°)
1.47061841540457e+01	(-2.81569220351680e-03dB,-1.67243816309585e-01°)
1.47910838816821e+01	(-2.81611661327242e-03dB,-1.68209319920387e-01°)
1.48764737407951e+01	(-2.81654593771512e-03dB,-1.69180397348710e-01°)
1.49623565609444e+01	(-2.81698023367451e-03dB,-1.70157080771031e-01°)
1.50487351880252e+01	(-2.81741955796575e-03dB,-1.71139402549807e-01°)
1.51356124843621e+01	(-2.81786396972304e-03dB,-1.72127395233380e-01°)
1.52229913288043e+01	(-2.81831352716609e-03dB,-1.73121091558940e-01°)
1.53108746168204e+01	(-2.81876829024231e-03dB,-1.74120524451981e-01°)
1.53992652605950e+01	(-2.81922831967280e-03dB,-1.75125727027782e-01°)
1.54881661891249e+01	(-2.81969367560372e-03dB,-1.76136732594038e-01°)
1.55775803483161e+01	(-2.82016441976426e-03dB,-1.77153574649742e-01°)
1.56675107010816e+01	(-2.82064061517717e-03dB,-1.78176286887011e-01°)
1.57579602274393e+01	(-2.82112232440323e-03dB,-1.79204903193231e-01°)
1.58489319246112e+01	(-2.82160961152731e-03dB,-1.80239457650776e-01°)
1.59404288071222e+01	(-2.82210254132502e-03dB,-1.81279984538853e-01°)
1.60324539069005e+01	(-2.82260117931381e-03dB,-1.82326518334525e-01°)
1.61250102733775e+01	(-2.82310559035326e-03dB,-1.83379093714804e-01°)
1.62181009735894e+01	(-2.82361584267440e-03dB,-1.84437745554989e-01°)
1.63117290922785e+01	(-2.82413200309990e-03dB,-1.85502508933451e-01°)
1.64058977319955e+01	(-2.82465414025828e-03dB,-1.86573419130051e-01°)
1.65006100132024e+01	(-2.82518232383244e-03dB,-1.87650511628125e-01°)
1.65958690743757e+01	(-2.82571662303168e-03dB,-1.88733822116855e-01°)
1.66916780721107e+01	(-2.82625710933992e-03dB,-1.89823386490369e-01°)
1.67880401812257e+01	(-2.82680385379163e-03dB,-1.90919240850697e-01°)
1.68849585948676e+01	(-2.82735692907563e-03dB,-1.92021421507898e-01°)
1.69824365246175e+01	(-2.82791640892456e-03dB,-1.93129964981154e-01°)
1.70804772005972e+01	(-2.82848236727460e-03dB,-1.94244908001472e-01°)
1.71790838715760e+01	(-2.82905487874686e-03dB,-1.95366287511228e-01°)
1.72782598050787e+01	(-2.82963401985513e-03dB,-1.96494140665800e-01°)
1.73780082874938e+01	(-2.83021986675534e-03dB,-1.97628504835856e-01°)
1.74783326241823e+01	(-2.83081249745170e-03dB,-1.98769417606874e-01°)
1.75792361395870e+01	(-2.83141199022052e-03dB,-1.99916916781872e-01°)
1.76807221773433e+01	(-2.83201842478410e-03dB,-2.01071040381650e-01°)
1.77827941003893e+01	(-2.83263188148606e-03dB,-2.02231826646764e-01°)
1.78854552910778e+01	(-2.83325244166552e-03dB,-2.03399314038145e-01°)
1.79887091512880e+01	(-2.83388018780284e-03dB,-2.04573541238998e-01°)
1.80925591025383e+01	(-2.83451520211122e-03dB,-2.05754547156194e-01°)
1.81970085860999e+01	(-2.83515757013382e-03dB,-2.06942370919929e-01°)
1.83020610631107e+01	(-2.83580737596306e-03dB,-2.08137051887644e-01°)
1.84077200146897e+01	(-2.83646470614832e-03dB,-2.09338629643073e-01°)
1.85139889420528e+01	(-2.83712964726507e-03dB,-2.10547143998944e-01°)
1.86208713666288e+01	(-2.83780228855995e-03dB,-2.11762634996809e-01°)
1.87283708301756e+01	(-2.83848271861207e-03dB,-2.12985142910429e-01°)
1.88364908948981e+01	(-2.83917102735982e-03dB,-2.14214708245644e-01°)
1.89452351435660e+01	(-2.83986730606895e-03dB,-2.15451371742062e-01°)
1.90546071796326e+01	(-2.84057164720916e-03dB,-2.16695174374207e-01°)
1.91646106273540e+01	(-2.84128414421097e-03dB,-2.17946157353323e-01°)
1.92752491319095e+01	(-2.84200489191333e-03dB,-2.19204362128096e-01°)
1.93865263595222e+01	(-2.84273398497778e-03dB,-2.20469830387410e-01°)
1.94984459975806e+01	(-2.84347151993439e-03dB,-2.21742604060111e-01°)
1.96110117547606e+01	(-2.84421759560242e-03dB,-2.23022725316565e-01°)
1.97242273611487e+01	(-2.84497231020790e-03dB,-2.24310236571250e-01°)
1.98380965683652e+01	(-2.84573576338051e-03dB,-2.25605180483571e-01°)
1.99526231496889e+01	(-2.84650805730144e-03dB,-2.26907599958184e-01°)
2.00678109001820e+01	(-2.84728929401018e-03dB,-2.28217538148183e-01°)
2.01836636368157e+01	(-2.84807957609705e-03dB,-2.29535038456031e-01°)
2.03001851985970e+01	(-2.84887900941008e-03dB,-2.30860144533495e-01°)
2.04173794466954e+01	(-2.84968770024203e-03dB,-2.32192900284774e-01°)
2.05352502645716e+01	(-2.85050575452210e-03dB,-2.33533349868346e-01°)
2.06538015581054e+01	(-2.85133328095094e-03dB,-2.34881537696698e-01°)
2.07730372557258e+01	(-2.85217039000425e-03dB,-2.36237508438249e-01°)
2.08929613085405e+01	(-2.85301719241341e-03dB,-2.37601307019810e-01°)
2.10135776904676e+01	(-2.85387379983789e-03dB,-2.38972978627922e-01°)
2.11348903983666e+01	(-2.85474032576328e-03dB,-2.40352568709120e-01°)
2.12569034521712e+01	(-2.85561688604638e-03dB,-2.41740122972086e-01°)
2.13796208950225e+01	(-2.85650359539610e-03dB,-2.43135687390473e-01°)
2.15030467934027e+01	(-2.85740057309099e-03dB,-2.44539308201538e-01°)
2.16271852372704e+01	(-2.85830793652186e-03dB,-2.45951031911143e-01°)
2.17520403401954e+01	(-2.85922580723627e-03dB,-2.47370905292044e-01°)
2.18776162394957e+01	(-2.86015430503392e-03dB,-2.48798975388479e-01°)
2.20039170963742e+01	(-2.86109355526229e-03dB,-2.50235289514295e-01°)
2.21309470960565e+01	(-2.86204368074253e-03dB,-2.51679895258170e-01°)
2.22587104479302e+01	(-2.86300480806766e-03dB,-2.53132840482376e-01°)
2.23872113856836e+01	(-2.86397706460638e-03dB,-2.54594173325653e-01°)
2.25164541674464e+01	(-2.86496057868535e-03dB,-2.56063942204894e-01°)
2.26464430759308e+01	(-2.86595548106518e-03dB,-2.57542195815867e-01°)
2.27771824185734e+01	(-2.86696190437313e-03dB,-2.59028983135279e-01°)
2.29086765276779e+01	(-2.86797998033850e-03dB,-2.60524353423574e-01°)
2.30409297605586e+01	(-2.86900984536635e-03dB,-2.62028356224008e-01°)
2.31739464996850e+01	(-2.87005163551649e-03dB,-2.63541041366647e-01°)
2.33077311528266e+01	(-2.87110548878104e-03dB,-2.65062458968978e-01°)
2.34422881531994e+01	(-2.87217154491464e-03dB,-2.66592659437551e-01°)
2.35776219596127e+01	(-2.87324994447657e-03dB,-2.68131693470362e-01°)
2.37137370566168e+01	(-2.87434083150571e-03dB,-2.69679612056896e-01°)
2.38506379546513e+01	(-2.87544435013464e-03dB,-2.71236466481732e-01°)
2.39883291901951e+01	(-2.87656064688453e-03dB,-2.72802308325099e-01°)
2.41268153259165e+01	(-2.87768986896350e-03dB,-2.74377189465260e-01°)
2.42661009508244e+01	(-2.87883216676413e-03dB,-2.75961162079290e-01°)
2.44061906804200e+01	(-2.87998769123668e-03dB,-2.77554278645837e-01°)
2.45470891568505e+01	(-2.88115659623516e-03dB,-2.79156591945683e-01°)
2.46888010490623e+01	(-2.88233903548442e-03dB,-2.80768155065479e-01°)
2.48313310529559e+01	(-2.88353516716812e-03dB,-2.82389021396556e-01°)
2.49746838915417e+01	(-2.88474514821694e-03dB,-2.84019244640078e-01°)
2.51188643150960e+01	(-2.88596914030974e-03dB,-2.85658878805576e-01°)
2.52638771013192e+01	(-2.88720730510237e-03dB,-2.87307978215127e-01°)
2.54097270554933e+01	(-2.88845980678112e-03dB,-2.88966597504020e-01°)
2.55564190106416e+01	(-2.88972681136916e-03dB,-2.90634791622841e-01°)
2.57039578276889e+01	(-2.89100848709303e-03dB,-2.92312615839145e-01°)
2.58523483956221e+01	(-2.89230500318466e-03dB,-2.94000125739730e-01°)
2.60015956316530e+01	(-2.89361653218970e-03dB,-2.95697377231700e-01°)
2.61517044813802e+01	(-2.89494324746719e-03dB,-2.97404426545194e-01°)
2.63026799189541e+01	(-2.89628532469440e-03dB,-2.99121330234695e-01°)
2.64545269472407e+01	(-2.89764294229514e-03dB,-3.00848145180690e-01°)
2.66072505979884e+01	(-2.89901627981435e-03dB,-3.02584928592288e-01°)
2.67608559319936e+01	(-2.90040551967761e-03dB,-3.04331738008483e-01°)
2.69153480392694e+01	(-2.90181084540460e-03dB,-3.06088631300560e-01°)
2.70707320392138e+01	(-2.90323244350758e-03dB,-3.07855666673412e-01°)
2.72270130807794e+01	(-2.90467050264824e-03dB,-3.09632902667747e-01°)
2.73841963426439e+01	(-2.90612521299046e-03dB,-3.11420398162457e-01°)
2.75422870333819e+01	(-2.90759676763569e-03dB,-3.13218212375790e-01°)
2.77012903916376e+01	(-2.90908536194097e-03dB,-3.15026404867658e-01°)
2.78612116862980e+01	(-2.91059119257840e-03dB,-3.16845035542073e-01°)
2.80220562166677e+01	(-2.91211445928499e-03dB,-3.18674164648225e-01°)
2.81838293126448e+01	(-2.91365536427718e-03dB,-3.20513852783134e-01°)
2.83465363348970e+01	(-2.91521411177328e-03dB,-3.22364160893350e-01°)
2.85101826750394e+01	(-2.91679090767615e-03dB,-3.24225150277492e-01°)
2.86747737558135e+01	(-2.91838596150926e-03dB,-3.26096882587269e-01°)
2.88403150312664e+01	(-2.91999948465522e-03dB,-3.27979419830410e-01°)
2.90068119869318e+01	(-2.92163169055739e-03dB,-3.29872824372443e-01°)
2.91742701400120e+01	(-2.92328279637723e-03dB,-3.31777158938437e-01°)
2.93426950395600e+01	(-2.92495302045332e-03dB,-3.33692486615690e-01°)
2.95120922666642e+01	(-2.92664258396159e-03dB,-3.35618870855507e-01°)
2.96824674346327e+01	(-2.92835171116516e-03dB,-3.37556375474946e-01°)
2.98538261891799e+01	(-2.93008062795578e-03dB,-3.39505064659724e-01°)
3.00261742086130e+01	(-2.93182956434944e-03dB,-3.41465002965286e-01°)
3.01995172040205e+01	(-2.93359875202354e-03dB,-3.43436255319897e-01°)
3.03738609194614e+01	(-2.93538842493531e-03dB,-3.45418887026600e-01°)
3.05492111321555e+01	(-2.93719882048518e-03dB,-3.47412963764814e-01°)
3.07255736526748e+01	(-2.93903017888585e-03dB,-3.49418551592973e-01°)
3.09029543251362e+01	(-2.94088274224402e-03dB,-3.51435716950929e-01°)
3.10813590273951e+01	(-2.94275675632665e-03dB,-3.53464526661471e-01°)
3.12607936712399e+01	(-2.94465247012782e-03dB,-3.55505047932822e-01°)
3.14412642025883e+01	(-2.94657013460122e-03dB,-3.57557348361218e-01°)
3.16227766016841e+01	(-2.94851000315403e-03dB,-3.59621495933100e-01°)
3.18053368832956e+01	(-2.95047233355311e-03dB,-3.61697559026493e-01°)
3.19889510969143e+01	(-2.95245738562719e-03dB,-3.63785606414403e-01°)
3.21736253269564e+01	(-2.95446542293093e-03dB,-3.65885707266156e-01°)
3.23593656929632e+01	(-2.95649671106446e-03dB,-3.67997931150557e-01°)
3.25461783498050e+01	(-2.95855151963746e-03dB,-3.70122348037346e-01°)
3.27340694878842e+01	(-2.96063012069390e-03dB,-3.72259028300285e-01°)
3.29230453333410e+01	(-2.96273278965738e-03dB,-3.74408042718855e-01°)
3.31131121482595e+01	(-2.96485980513341e-03dB,-3.76569462480960e-01°)
3.33042762308750e+01	(-2.96701144980943e-03dB,-3.78743359184805e-01°)
3.34965439157832e+01	(-2.96918800796218e-03dB,-3.80929804842244e-01°)
3.36899215741495e+01	(-2.97138976836031e-03dB,-3.83128871880047e-01°)
3.38844156139207e+01	(-2.97361702289077e-03dB,-3.85340633143039e-01°)
3.40800324800369e+01	(-2.97587006625496e-03dB,-3.87565161896152e-01°)
3.42767786546454e+01	(-2.97814919779768e-03dB,-3.89802531826758e-01°)
3.44746606573154e+01	(-2.98045471916019e-03dB,-3.92052817047556e-01°)
3.46736850452536e+01	(-2.98278693610337e-03dB,-3.94316092098637e-01°)
3.48738584135223e+01	(-2.98514615756727e-03dB,-3.96592431950096e-01°)
3.50751873952572e+01	(-2.98753269621896e-03dB,-3.98881912004400e-01°)
3.52776786618878e+01	(-2.98994686809955e-03dB,-4.01184608099107e-01°)
3.54813389233580e+01	(-2.99238899309492e-03dB,-4.03500596509090e-01°)
3.56861749283486e+01	(-2.99485939559462e-03dB,-4.05829953948924e-01°)
3.58921934645010e+01	(-2.99735840234936e-03dB,-4.08172757576167e-01°)
3.60994013586421e+01	(-2.99988634531292e-03dB,-4.10529084992914e-01°)
3.63078054770106e+01	(-3.00244355879257e-03dB,-4.12899014249336e-01°)
3.65174127254842e+01	(-3.00503038125877e-03dB,-4.15282623845678e-01°)
3.67282300498089e+01	(-3.00764715638124e-03dB,-4.17679992734536e-01°)
3.69402644358288e+01	(-3.01029423110354e-03dB,-4.20091200324172e-01°)
3.71535229097177e+01	(-3.01297195594017e-03dB,-4.22516326480884e-01°)
3.73680125382121e+01	(-3.01568068511839e-03dB,-4.24955451531783e-01°)
3.75837404288449e+01	(-3.01842077803781e-03dB,-4.27408656266881e-01°)
3.78007137301816e+01	(-3.02119259849287e-03dB,-4.29876021942068e-01°)
3.80189396320566e+01	(-3.02399651336282e-03dB,-4.32357630282261e-01°)
3.82384253658118e+01	(-3.02683289388902e-03dB,-4.34853563483552e-01°)
3.84591782045359e+01	(-3.02970211656721e-03dB,-4.37363904215957e-01°)
3.86812054633057e+01	(-3.03260456115070e-03dB,-4.39888735626453e-01°)
3.89045144994286e+01	(-3.03554061199034e-03dB,-4.42428141341500e-01°)
3.91291127126858e+01	(-3.03851065939466e-03dB,-4.44982205469416e-01°)
3.93550075455783e+01	(-3.04151509630668e-03dB,-4.47551012604121e-01°)
3.95822064835728e+01	(-3.04455432017631e-03dB,-4.50134647827317e-01°)
3.98107170553503e+01	(-3.04762873508940e-03dB,-4.52733196710880e-01°)
4.00405468330552e+01	(-3.05073874717886e-03dB,-4.55346745320746e-01°)
4.02717034325465e+01	(-3.05388476960911e-03dB,-4.57975380218642e-01°)
4.05041945136499e+01	(-3.05706721895570e-03dB,-4.60619188465794e-01°)
4.07380277804118e+01	(-3.06028651663886e-03dB,-4.63278257625456e-01°)
4.09732109813547e+01	(-3.06354309012062e-03dB,-4.65952675765473e-01°)
4.12097519097336e+01	(-3.06683736989323e-03dB,-4.68642531462029e-01°)
4.14476584037945e+01	(-3.07016979341495e-03dB,-4.71347913801547e-01°)
4.16869383470341e+01	(-3.07354080206276e-03dB,-4.74068912384510e-01°)
4.19275996684611e+01	(-3.07695084205070e-03dB,-4.76805617327948e-01°)
4.21696503428588e+01	(-3.08040036571679e-03dB,-4.79558119268469e-01°)
4.24130983910494e+01	(-3.08388983046966e-03dB,-4.82326509365129e-01°)
4.26579518801599e+01	(-3.08741969847986e-03dB,-4.85110879302804e-01°)
4.29042189238891e+01	(-3.09099043745067e-03dB,-4.87911321294977e-01°)
4.31519076827771e+01	(-3.09460252020912e-03dB,-4.90727928086935e-01°)
4.34010263644750e+01	(-3.09825642629580e-03dB,-4.93560792958259e-01°)
4.36515832240172e+01	(-3.10195263909111e-03dB,-4.96410009726792e-01°)
4.39035865640951e+01	(-3.10569164936246e-03dB,-4.99275672750852e-01°)
4.41570447353319e+01	(-3.10947395194481e-03dB,-5.02157876933181e-01°)
4.44119661365595e+01	(-3.11330004782053e-03dB,-5.05056717723527e-01°)
4.46683592150970e+01	(-3.11717044454686e-03dB,-5.07972291121706e-01°)
4.49262324670300e+01	(-3.12108565464487e-03dB,-5.10904693681287e-01°)
4.51855944374929e+01	(-3.12504619720765e-03dB,-5.13854022512215e-01°)
4.54464537209515e+01	(-3.12905259709099e-03dB,-5.16820375284296e-01°)
4.57088189614882e+01	(-3.13310538504074e-03dB,-5.19803850230578e-01°)
4.59726988530879e+01	(-3.13720509778449e-03dB,-5.22804546150291e-01°)
4.62381021399267e+01	(-3.14135227970053e-03dB,-5.25822562411900e-01°)
4.65050376166613e+01	(-3.14554747956210e-03dB,-5.28857998957119e-01°)
4.67735141287205e+01	(-3.14979125309093e-03dB,-5.31910956303655e-01°)
4.70435405725983e+01	(-3.15408416316373e-03dB,-5.34981535548384e-01°)
4.73151258961488e+01	(-3.15842677849931e-03dB,-5.38069838371172e-01°)
4.75882790988824e+01	(-3.16281967421428e-03dB,-5.41175967037945e-01°)
4.78630092322646e+01	(-3.16726343262284e-03dB,-5.44300024403978e-01°)
4.81393254000152e+01	(-3.17175864324064e-03dB,-5.47442113917334e-01°)
4.84172367584107e+01	(-3.17630590105041e-03dB,-5.50602339622547e-01°)
4.86967525165871e+01	(-3.18090580829045e-03dB,-5.53780806163829e-01°)
4.89778819368454e+01	(-3.18555897534805e-03dB,-5.56977618788157e-01°)
4.92606343349585e+01	(-3.19026601838253e-03dB,-5.60192883349448e-01°)
4.95450190804798e+01	(-3.19502756067488e-03dB,-5.63426706311685e-01°)
4.98310455970537e+01	(-3.19984423484953e-03dB,-5.66679194751904e-01°)
5.01187233627280e+01	(-3.20471667727725e-03dB,-5.69950456365100e-01°)
5.04080619102677e+01	(-3.20964553417113e-03dB,-5.73240599466297e-01°)
5.06990708274712e+01	(-3.21463145904847e-03dB,-5.76549732994790e-01°)
5.09917597574878e+01	(-3.21967511225629e-03dB,-5.79877966517787e-01°)
5.12861383991373e+01	(-3.22477716196207e-03dB,-5.83225410233957e-01°)
