Freq.	V(n028)
Step Information: Run=1  (Step: 1/100)
1.00000000000000e+00	(-1.38274274082445e-01dB,-5.51492761260239e-01Ḟ)
1.04712854805090e+00	(-1.38313204372625e-01dB,-5.77482086272886e-01Ḟ)
1.09647819614319e+00	(-1.38355890185816e-01dB,-6.04695994439593e-01Ḟ)
1.14815362149688e+00	(-1.38402693767100e-01dB,-6.33192160662141e-01Ḟ)
1.20226443461741e+00	(-1.38454012293723e-01dB,-6.63030972364606e-01Ḟ)
1.25892541179417e+00	(-1.38510281242068e-01dB,-6.94275656492691e-01Ḟ)
1.31825673855641e+00	(-1.38571978079342e-01dB,-7.26992412381248e-01Ḟ)
1.38038426460289e+00	(-1.38639626308542e-01dB,-7.61250550745873e-01Ḟ)
1.44543977074593e+00	(-1.38713799905863e-01dB,-7.97122639057947e-01Ḟ)
1.51356124843621e+00	(-1.38795128181971e-01dB,-8.34684653583929e-01Ḟ)
1.58489319246111e+00	(-1.38884301112817e-01dB,-8.74016138380850e-01Ḟ)
1.65958690743756e+00	(-1.38982075182819e-01dB,-9.15200371537653e-01Ḟ)
1.73780082874938e+00	(-1.39089279788674e-01dB,-9.58324538966680e-01Ḟ)
1.81970085860999e+00	(-1.39206824259741e-01dB,-1.00347991606746e+00Ḟ)
1.90546071796325e+00	(-1.39335705552861e-01dB,-1.05076205757457e+00Ḟ)
1.99526231496888e+00	(-1.39477016684596e-01dB,-1.10027099593693e+00Ḟ)
2.08929613085404e+00	(-1.39631955974689e-01dB,-1.15211144854526e+00Ḟ)
2.18776162394956e+00	(-1.39801837174653e-01dB,-1.20639303417454e+00Ḟ)
2.29086765276778e+00	(-1.39988100568719e-01dB,-1.26323049897794e+00Ḟ)
2.39883291901949e+00	(-1.40192325137253e-01dB,-1.32274395239758e+00Ḟ)
2.51188643150958e+00	(-1.40416241885846e-01dB,-1.38505911334080e+00Ḟ)
2.63026799189539e+00	(-1.40661748449500e-01dB,-1.45030756698894e+00Ḟ)
2.75422870333817e+00	(-1.40930925092296e-01dB,-1.51862703259314e+00Ḟ)
2.88403150312661e+00	(-1.41226052237101e-01dB,-1.59016164261105e+00Ḟ)
3.01995172040202e+00	(-1.41549629666075e-01dB,-1.66506223352802e+00Ḟ)
3.16227766016839e+00	(-1.41904397553320e-01dB,-1.74348664870404e+00Ḟ)
3.31131121482592e+00	(-1.42293359498838e-01dB,-1.82560005355908e+00Ḟ)
3.46736850452532e+00	(-1.42719807753957e-01dB,-1.91157526339775e+00Ḟ)
3.63078054770102e+00	(-1.43187350841877e-01dB,-2.00159308414238e+00Ḟ)
3.80189396320562e+00	(-1.43699943796113e-01dB,-2.09584266621689e+00Ḟ)
3.98107170553498e+00	(-1.44261921262492e-01dB,-2.19452187176098e+00Ḟ)
4.16869383470336e+00	(-1.44878033727407e-01dB,-2.29783765533268e+00Ḟ)
4.36515832240167e+00	(-1.45553487162754e-01dB,-2.40600645815894e+00Ḟ)
4.57088189614876e+00	(-1.46293986398675e-01dB,-2.51925461594644e+00Ḟ)
4.78630092322640e+00	(-1.47105782567333e-01dB,-2.63781878015208e+00Ḟ)
5.01187233627274e+00	(-1.47995724985383e-01dB,-2.76194635251348e+00Ḟ)
5.24807460249774e+00	(-1.48971317877239e-01dB,-2.89189593250652e+00Ḟ)
5.49540873857626e+00	(-1.50040782371547e-01dB,-3.02793777724700e+00Ḟ)
5.75439937337159e+00	(-1.51213124242883e-01dB,-3.17035427317466e+00Ḟ)
6.02559586074359e+00	(-1.52498207901275e-01dB,-3.31944041864597e+00Ḟ)
6.30957344480195e+00	(-1.53906837177711e-01dB,-3.47550431632868e+00Ḟ)
6.60693448007598e+00	(-1.55450843496352e-01dB,-3.63886767399815e+00Ḟ)
6.91830970918939e+00	(-1.57143182056972e-01dB,-3.80986631202730e+00Ḟ)
7.24435960074992e+00	(-1.58998036710598e-01dB,-3.98885067546897e+00Ḟ)
7.58577575029186e+00	(-1.61030934245291e-01dB,-4.17618634821803e+00Ḟ)
7.94328234724284e+00	(-1.63258868852477e-01dB,-4.37225456623724e+00Ḟ)
8.31763771102674e+00	(-1.65700437590791e-01dB,-4.57745272626545e+00Ḟ)
8.70963589956084e+00	(-1.68375987704994e-01dB,-4.79219488579655e+00Ḟ)
9.12010839355913e+00	(-1.71307776712326e-01dB,-5.01691224937094e+00Ḟ)
9.54992586021439e+00	(-1.74520146200419e-01dB,-5.25205363540538e+00Ḟ)
1.00000000000000e+01	(-1.78039710324683e-01dB,-5.49808591684423e+00Ḟ)
1.04712854805090e+01	(-1.81895560022768e-01dB,-5.75549442785778e+00Ḟ)
1.09647819614319e+01	(-1.86119483984252e-01dB,-6.02478332763382e+00Ḟ)
1.14815362149689e+01	(-1.90746207426049e-01dB,-6.30647591097601e+00Ḟ)
1.20226443461742e+01	(-1.95813649721300e-01dB,-6.60111485394300e+00Ḟ)
1.25892541179417e+01	(-2.01363201902171e-01dB,-6.90926238113305e+00Ḟ)
1.31825673855641e+01	(-2.07440025015594e-01dB,-7.23150033939020e+00Ḟ)
1.38038426460289e+01	(-2.14093370231004e-01dB,-7.56843016073871e+00Ḟ)
1.44543977074593e+01	(-2.21376921487889e-01dB,-7.92067269517705e+00Ḟ)
1.51356124843621e+01	(-2.29349161318818e-01dB,-8.28886789161734e+00Ḟ)
1.58489319246112e+01	(-2.38073760271659e-01dB,-8.67367430274923e+00Ḟ)
1.65958690743757e+01	(-2.47619990092536e-01dB,-9.07576838692815e+00Ḟ)
1.73780082874938e+01	(-2.58063160485237e-01dB,-9.49584357739480e+00Ḟ)
1.81970085860999e+01	(-2.69485078841997e-01dB,-9.93460908624146e+00Ḟ)
1.90546071796326e+01	(-2.81974531819914e-01dB,-1.03927884076122e+01Ḟ)
1.99526231496889e+01	(-2.95627787004852e-01dB,-1.08711174817378e+01Ḟ)
2.08929613085405e+01	(-3.10549112152818e-01dB,-1.13703424786512e+01Ḟ)
2.18776162394956e+01	(-3.26851308603228e-01dB,-1.18912171579385e+01Ḟ)
2.29086765276778e+01	(-3.44656254422390e-01dB,-1.24344997587973e+01Ḟ)
2.39883291901950e+01	(-3.64095451626882e-01dB,-1.30009493732142e+01Ḟ)
2.51188643150959e+01	(-3.85310570465722e-01dB,-1.35913217544427e+01Ḟ)
2.63026799189540e+01	(-4.08453982197559e-01dB,-1.42063645134522e+01Ḟ)
2.75422870333818e+01	(-4.33689270080872e-01dB,-1.48468116579479e+01Ḟ)
2.88403150312662e+01	(-4.61191706425191e-01dB,-1.55133774322797e+01Ḟ)
3.01995172040203e+01	(-4.91148681545061e-01dB,-1.62067494224709e+01Ḟ)
3.16227766016840e+01	(-5.23760068357905e-01dB,-1.69275808991287e+01Ḟ)
3.31131121482593e+01	(-5.59238504219673e-01dB,-1.76764823825942e+01Ḟ)
3.46736850452534e+01	(-5.97809569492124e-01dB,-1.84540124297498e+01Ḟ)
3.63078054770103e+01	(-6.39711840357025e-01dB,-1.92606676608573e+01Ḟ)
3.80189396320563e+01	(-6.85196791683230e-01dB,-2.00968720679036e+01Ḟ)
3.98107170553500e+01	(-7.34528524449013e-01dB,-2.09629656733913e+01Ḟ)
4.16869383470338e+01	(-7.87983291506617e-01dB,-2.18591926402788e+01Ḟ)
4.36515832240169e+01	(-8.45848795541089e-01dB,-2.27856889695714e+01Ḟ)
4.57088189614878e+01	(-9.08423234138049e-01dB,-2.37424699612838e+01Ḟ)
4.78630092322641e+01	(-9.76014069144427e-01dB,-2.47294176560932e+01Ḟ)
5.01187233627275e+01	(-1.04893650118265e+00dB,-2.57462685175653e+01Ḟ)
5.24807460249776e+01	(-1.12751163544367e+00dB,-2.67926016563364e+01Ḟ)
5.49540873857628e+01	(-1.21206433183639e+00dB,-2.78678279357184e+01Ḟ)
5.75439937337161e+01	(-1.30292074124627e+00dB,-2.89711803299364e+01Ḟ)
6.02559586074362e+01	(-1.40040553998803e+00dB,-3.01017059284381e+01Ḟ)
6.30957344480197e+01	(-1.50483888629190e+00dB,-3.12582599891068e+01Ḟ)
6.60693448007600e+01	(-1.61653313548771e+00dB,-3.24395024365467e+01Ḟ)
6.91830970918941e+01	(-1.73578936392024e+00dB,-3.36438971760672e+01Ḟ)
7.24435960074995e+01	(-1.86289376485179e+00dB,-3.48697145475752e+01Ḟ)
7.58577575029189e+01	(-1.99811399189629e+00dB,-3.61150371753554e+01Ḟ)
7.94328234724287e+01	(-2.14169553597134e+00dB,-3.73777693802998e+01Ḟ)
8.31763771102677e+01	(-2.29385822947837e+00dB,-3.86556502127378e+01Ḟ)
8.70963589956087e+01	(-2.45479297556600e+00dB,-3.99462700407306e+01Ḟ)
9.12010839355916e+01	(-2.62465880023198e+00dB,-4.12470904962756e+01Ḟ)
9.54992586021443e+01	(-2.80358032023449e+00dB,-4.25554674475254e+01Ḟ)
1.00000000000001e+02	(-2.99164571018662e+00dB,-4.38686765369597e+01Ḟ)
1.04712854805091e+02	(-3.18890523803936e+00dB,-4.51839407118710e+01Ḟ)
1.09647819614319e+02	(-3.39537042002237e+00dB,-4.64984590823812e+01Ḟ)
1.14815362149689e+02	(-3.61101382495937e+00dB,-4.78094363800711e+01Ḟ)
1.20226443461742e+02	(-3.83576953491608e+00dB,-4.91141122618402e+01Ḟ)
1.25892541179418e+02	(-4.06953424575696e+00dB,-5.04097897109217e+01Ḟ)
1.31825673855642e+02	(-4.31216896880456e+00dB,-5.16938618295212e+01Ḟ)
1.38038426460290e+02	(-4.56350127473045e+00dB,-5.29638363921421e+01Ḟ)
1.44543977074594e+02	(-4.82332800418961e+00dB,-5.42173576298002e+01Ḟ)
1.51356124843622e+02	(-5.09141835734281e+00dB,-5.54522248358268e+01Ḟ)
1.58489319246113e+02	(-5.36751726676361e+00dB,-5.66664075156476e+01Ḟ)
1.65958690743757e+02	(-5.65134895537679e+00dB,-5.78580569374060e+01Ḟ)
1.73780082874939e+02	(-5.94262058276856e+00dB,-5.90255140698307e+01Ḟ)
1.81970085861000e+02	(-6.24102588889866e+00dB,-6.01673140115666e+01Ḟ)
1.90546071796326e+02	(-6.54624875317933e+00dB,-6.12821871172769e+01Ḟ)
1.99526231496890e+02	(-6.85796659818450e+00dB,-6.23690571068249e+01Ḟ)
2.08929613085406e+02	(-7.17585358002713e+00dB,-6.34270365031569e+01Ḟ)
2.18776162394957e+02	(-7.49958352081035e+00dB,-6.44554197823000e+01Ḟ)
2.29086765276779e+02	(-7.82883255178091e+00dB,-6.54536746364305e+01Ḟ)
2.39883291901951e+02	(-8.16328144825621e+00dB,-6.64214317507657e+01Ḟ)
2.51188643150960e+02	(-8.50261764860845e+00dB,-6.73584734800067e+01Ḟ)
2.63026799189540e+02	(-8.84653695925996e+00dB,-6.82647217835735e+01Ḟ)
2.75422870333819e+02	(-9.19474495562569e+00dB,-6.91402257441766e+01Ḟ)
2.88403150312663e+02	(-9.54695809519141e+00dB,-6.99851489544917e+01Ḟ)
3.01995172040204e+02	(-9.90290456351691e+00dB,-7.07997570144783e+01Ḟ)
3.16227766016841e+02	(-1.02623248770343e+01dB,-7.15844053395295e+01Ḟ)
3.31131121482594e+02	(-1.06249722682609e+01dB,-7.23395274388423e+01Ḟ)
3.46736850452535e+02	(-1.09906128796779e+01dB,-7.30656237854807e+01Ḟ)
3.63078054770105e+02	(-1.13590257922429e+01dB,-7.37632513653874e+01Ḟ)
3.80189396320565e+02	(-1.17300029135259e+01dB,-7.44330139625714e+01Ḟ)
3.98107170553501e+02	(-1.21033487489689e+01dB,-7.50755532120166e+01Ḟ)
4.16869383470339e+02	(-1.24788800779230e+01dB,-7.56915404304786e+01Ḟ)
4.36515832240170e+02	(-1.28564255540805e+01dB,-7.62816692180119e+01Ḟ)
4.57088189614879e+02	(-1.32358252477771e+01dB,-7.68466488094705e+01Ḟ)
4.78630092322643e+02	(-1.36169301455031e+01dB,-7.73871981449437e+01Ḟ)
5.01187233627277e+02	(-1.39996016198866e+01dB,-7.79040406206876e+01Ḟ)
5.24807460249778e+02	(-1.43837108814535e+01dB,-7.83978994771518e+01Ḟ)
5.49540873857630e+02	(-1.47691384216490e+01dB,-7.88694937777805e+01Ḟ)
5.75439937337163e+02	(-1.51557734549548e+01dB,-7.93195349309836e+01Ḟ)
6.02559586074364e+02	(-1.55435133664521e+01dB,-7.97487237077038e+01Ḟ)
6.30957344480200e+02	(-1.59322631698718e+01dB,-8.01577477080336e+01Ḟ)
6.60693448007603e+02	(-1.63219349800246e+01dB,-8.05472792321125e+01Ḟ)
6.91830970918944e+02	(-1.67124475025188e+01dB,-8.09179735128523e+01Ḟ)
7.24435960074998e+02	(-1.71037255428276e+01dB,-8.12704672706938e+01Ḟ)
7.58577575029192e+02	(-1.74956995360558e+01dB,-8.16053775534902e+01Ḟ)
7.94328234724290e+02	(-1.78883050981590e+01dB,-8.19233008275863e+01Ḟ)
8.31763771102680e+02	(-1.82814825988795e+01dB,-8.22248122891648e+01Ḟ)
8.70963589956090e+02	(-1.86751767562604e+01dB,-8.25104653678771e+01Ḟ)
9.12010839355920e+02	(-1.90693362522769e+01dB,-8.27807913976329e+01Ḟ)
9.54992586021446e+02	(-1.94639133688700e+01dB,-8.30362994321500e+01Ḟ)
1.00000000000001e+03	(-1.98588636434687e+01dB,-8.32774761854498e+01Ḟ)
1.04712854805091e+03	(-2.02541455429345e+01dB,-8.35047860799128e+01Ḟ)
1.09647819614320e+03	(-2.06497201547549e+01dB,-8.37186713867799e+01Ḟ)
1.14815362149690e+03	(-2.10455508942331e+01dB,-8.39195524461056e+01Ḟ)
1.20226443461743e+03	(-2.14416032263710e+01dB,-8.41078279551365e+01Ḟ)
1.25892541179418e+03	(-2.18378444011157e+01dB,-8.42838753159287e+01Ḟ)
1.31825673855642e+03	(-2.22342432006317e+01dB,-8.44480510347290e+01Ḟ)
1.38038426460290e+03	(-2.26307696972653e+01dB,-8.46006911672455e+01Ḟ)
1.44543977074594e+03	(-2.30273950208879e+01dB,-8.47421118054482e+01Ḟ)
1.51356124843623e+03	(-2.34240911343358e+01dB,-8.48726096029634e+01Ḟ)
1.58489319246113e+03	(-2.38208306157041e+01dB,-8.49924623374960e+01Ḟ)
1.65958690743758e+03	(-2.42175864462997e+01dB,-8.51019295100276e+01Ḟ)
1.73780082874940e+03	(-2.46143318031229e+01dB,-8.52012529818182e+01Ḟ)
1.81970085861001e+03	(-2.50110398548105e+01dB,-8.52906576514971e+01Ḟ)
1.90546071796327e+03	(-2.54076835600596e+01dB,-8.53703521757731e+01Ḟ)
1.99526231496890e+03	(-2.58042354676402e+01dB,-8.54405297385400e+01Ḟ)
2.08929613085406e+03	(-2.62006675172194e+01dB,-8.55013688744002e+01Ḟ)
2.18776162394958e+03	(-2.65969508403426e+01dB,-8.55530343538898e+01Ḟ)
2.29086765276780e+03	(-2.69930555610707e+01dB,-8.55956781389636e+01Ḟ)
2.39883291901952e+03	(-2.73889505959436e+01dB,-8.56294404185742e+01Ḟ)
2.51188643150961e+03	(-2.77846034531517e+01dB,-8.56544507354630e+01Ḟ)
2.63026799189541e+03	(-2.81799800310313e+01dB,-8.56708292165486e+01Ḟ)
2.75422870333820e+03	(-2.85750444162886e+01dB,-8.56786879205260e+01Ḟ)
2.88403150312664e+03	(-2.89697586826844e+01dB,-8.56781323174505e+01Ḟ)
3.01995172040205e+03	(-2.93640826912959e+01dB,-8.56692629161280e+01Ḟ)
3.16227766016842e+03	(-2.97579738939161e+01dB,-8.56521770560094e+01Ḟ)
3.31131121482595e+03	(-3.01513871416615e+01dB,-8.56269708809152e+01Ḟ)
3.46736850452536e+03	(-3.05442745014407e+01dB,-8.55937415122177e+01Ḟ)
3.63078054770106e+03	(-3.09365850835948e+01dB,-8.55525894389471e+01Ḟ)
3.80189396320566e+03	(-3.13282648847530e+01dB,-8.55036211415575e+01Ḟ)
3.98107170553503e+03	(-3.17192566507610e+01dB,-8.54469519646072e+01Ḟ)
4.16869383470341e+03	(-3.21094997654208e+01dB,-8.53827092512008e+01Ḟ)
4.36515832240172e+03	(-3.24989301717249e+01dB,-8.53110357485075e+01Ḟ)
4.57088189614881e+03	(-3.28874803332503e+01dB,-8.52320932887677e+01Ḟ)
4.78630092322645e+03	(-3.32750792443819e+01dB,-8.51460667437021e+01Ḟ)
5.01187233627279e+03	(-3.36616524990090e+01dB,-8.50531682418864e+01Ḟ)
5.24807460249780e+03	(-3.40471224282395e+01dB,-8.49536416282194e+01Ḟ)
5.49540873857632e+03	(-3.44314083184404e+01dB,-8.48477671318821e+01Ḟ)
5.75439937337165e+03	(-3.48144267214441e+01dB,-8.47358661940074e+01Ḟ)
6.02559586074366e+03	(-3.51960918689751e+01dB,-8.46183063886043e+01Ḟ)
6.30957344480202e+03	(-3.55763162031158e+01dB,-8.44955063501650e+01Ḟ)
6.60693448007605e+03	(-3.59550110338287e+01dB,-8.43679405990860e+01Ḟ)
6.91830970918946e+03	(-3.63320873330269e+01dB,-8.42361441320438e+01Ḟ)
7.24435960075000e+03	(-3.67074566723020e+01dB,-8.41007166195288e+01Ḟ)
7.58577575029195e+03	(-3.70810323080343e+01dB,-8.39623260279789e+01Ḟ)
7.94328234724293e+03	(-3.74527304131085e+01dB,-8.38217114608056e+01Ḟ)
8.31763771102683e+03	(-3.78224714487685e+01dB,-8.36796849929275e+01Ḟ)
8.70963589956093e+03	(-3.81901816632369e+01dB,-8.35371322594121e+01Ḟ)
9.12010839355923e+03	(-3.85557946956964e+01dB,-8.33950115529551e+01Ḟ)
9.54992586021450e+03	(-3.89192532552208e+01dB,-8.32543511898582e+01Ḟ)
1.00000000000001e+04	(-3.92805108345916e+01dB,-8.31162449225212e+01Ḟ)
1.04712854805092e+04	(-3.96395334090719e+01dB,-8.29818452105772e+01Ḟ)
1.09647819614320e+04	(-3.99963010607161e+01dB,-8.28523542144288e+01Ḟ)
1.14815362149690e+04	(-4.03508094604101e+01dB,-8.27290124448726e+01Ḟ)
1.20226443461743e+04	(-4.07030711333518e+01dB,-8.26130850902276e+01Ḟ)
1.25892541179419e+04	(-4.10531164299692e+01dB,-8.25058461457895e+01Ḟ)
1.31825673855643e+04	(-4.14009941241404e+01dB,-8.24085605855612e+01Ḟ)
1.38038426460291e+04	(-4.17467715647215e+01dB,-8.23224649372480e+01Ḟ)
1.44543977074595e+04	(-4.20905343152588e+01dB,-8.22487467409331e+01Ḟ)
1.51356124843623e+04	(-4.24323852305086e+01dB,-8.21885234808423e+01Ḟ)
1.58489319246114e+04	(-4.27724429367112e+01dB,-8.21428216687576e+01Ḟ)
1.65958690743759e+04	(-4.31108397047730e+01dB,-8.21125568177750e+01Ḟ)
1.73780082874940e+04	(-4.34477187304022e+01dB,-8.20985150683346e+01Ḟ)
1.81970085861001e+04	(-4.37832308612731e+01dB,-8.21013372091897e+01Ḟ)
1.90546071796328e+04	(-4.41175308366213e+01dB,-8.21215057717939e+01Ḟ)
1.99526231496891e+04	(-4.44507731273561e+01dB,-8.21593357688123e+01Ḟ)
2.08929613085407e+04	(-4.47831074829452e+01dB,-8.22149695014023e+01Ḟ)
2.18776162394959e+04	(-4.51146743034287e+01dB,-8.22883756845150e+01Ḟ)
2.29086765276781e+04	(-4.54455999598093e+01dB,-8.23793529466475e+01Ḟ)
2.39883291901953e+04	(-4.57759921832503e+01dB,-8.24875375638794e+01Ḟ)
2.51188643150962e+04	(-4.61059356330950e+01dB,-8.26124151017416e+01Ḟ)
2.63026799189542e+04	(-4.64354877364690e+01dB,-8.27533354755066e+01Ḟ)
2.75422870333821e+04	(-4.67646748694336e+01dB,-8.29095308105547e+01Ḟ)
2.88403150312665e+04	(-4.70934889229885e+01dB,-8.30801353969479e+01Ḟ)
3.01995172040207e+04	(-4.74218842685458e+01dB,-8.32642069897430e+01Ḟ)
3.16227766016843e+04	(-4.77497751086531e+01dB,-8.34607487085193e+01Ḟ)
3.31131121482597e+04	(-4.80770331713732e+01dB,-8.36687308321524e+01Ḟ)
3.46736850452537e+04	(-4.84034856821215e+01dB,-8.38871118613385e+01Ḟ)
3.63078054770107e+04	(-4.87289135257591e+01dB,-8.41148583232336e+01Ḟ)
3.80189396320568e+04	(-4.90530494947018e+01dB,-8.43509629105235e+01Ḟ)
3.98107170553504e+04	(-4.93755765055966e+01dB,-8.45944606721875e+01Ḟ)
4.16869383470342e+04	(-4.96961256572115e+01dB,-8.48444430970374e+01Ḟ)
4.36515832240173e+04	(-5.00142739946621e+01dB,-8.51000700473045e+01Ḟ)
4.57088189614883e+04	(-5.03295418388018e+01dB,-8.53605796034504e+01Ḟ)
4.78630092322647e+04	(-5.06413895331524e+01dB,-8.56252959703631e+01Ḟ)
5.01187233627281e+04	(-5.09492134526201e+01dB,-8.58936356684264e+01Ḟ)
5.24807460249782e+04	(-5.12523411067577e+01dB,-8.61651122915646e+01Ḟ)
5.49540873857634e+04	(-5.15500251536564e+01dB,-8.64393401606677e+01Ḟ)
5.75439937337167e+04	(-5.18414361165776e+01dB,-8.67160372383978e+01Ḟ)
6.02559586074368e+04	(-5.21256535616842e+01dB,-8.69950277048953e+01Ḟ)
6.30957344480204e+04	(-5.24016554485938e+01dB,-8.72762446290190e+01Ḟ)
6.60693448007608e+04	(-5.26683053019033e+01dB,-8.75597332132880e+01Ḟ)
6.91830970918949e+04	(-5.29243367658895e+01dB,-8.78456551511322e+01Ḟ)
7.24435960075003e+04	(-5.31683349887079e+01dB,-8.81342947232719e+01Ḟ)
7.58577575029197e+04	(-5.33987141259301e+01dB,-8.84260673907853e+01Ḟ)
7.94328234724296e+04	(-5.36136900408429e+01dB,-8.87215318364762e+01Ḟ)
8.31763771102686e+04	(-5.38112469881822e+01dB,-8.90214066941115e+01Ḟ)
8.70963589956096e+04	(-5.39890966657128e+01dB,-8.93265936333462e+01Ḟ)
9.12010839355926e+04	(-5.41446274543007e+01dB,-8.96382091090455e+01Ḟ)
9.54992586021453e+04	(-5.42748408652271e+01dB,-8.99576280528786e+01Ḟ)
1.00000000000002e+05	(-5.43762710537371e+01dB,-9.02865442717967e+01Ḟ)
1.04712854805092e+05	(-5.44448815491314e+01dB,-9.06270546400441e+01Ḟ)
1.09647819614321e+05	(-5.44759307819610e+01dB,-9.09817778762856e+01Ḟ)
1.14815362149690e+05	(-5.44637940348190e+01dB,-9.13540247571534e+01Ḟ)
1.20226443461744e+05	(-5.44017232019311e+01dB,-9.17480468147277e+01Ḟ)
1.25892541179419e+05	(-5.42815156050630e+01dB,-9.21694082859436e+01Ḟ)
1.31825673855643e+05	(-5.40930461049169e+01dB,-9.26255580395822e+01Ḟ)
1.38038426460291e+05	(-5.38235871383915e+01dB,-9.31267383457084e+01Ḟ)
1.44543977074595e+05	(-5.34567875282560e+01dB,-9.36874862604608e+01Ḟ)
1.51356124843624e+05	(-5.29710782501585e+01dB,-9.43292325822442e+01Ḟ)
1.58489319246114e+05	(-5.23370655698838e+01dB,-9.50850630875184e+01Ḟ)
1.65958690743759e+05	(-5.15130208754206e+01dB,-9.60090751931057e+01Ḟ)
1.73780082874941e+05	(-5.04365094888777e+01dB,-9.71964815880102e+01Ḟ)
1.81970085861002e+05	(-4.90073922125927e+01dB,-9.88321928713257e+01Ḟ)
1.90546071796328e+05	(-4.70489727318018e+01dB,-1.01328972878549e+02Ḟ)
1.99526231496892e+05	(-4.42039826582191e+01dB,-1.05828050830724e+02Ḟ)
2.08929613085408e+05	(-3.96044015112700e+01dB,-1.16910646743697e+02Ḟ)
2.18776162394960e+05	(-3.24603838312957e+01dB,-1.67911630550372e+02Ḟ)
2.29086765276782e+05	(-3.81876089769064e+01dB,1.17538597595843e+02Ḟ)
2.39883291901954e+05	(-4.40181050713462e+01dB,1.01837482303366e+02Ḟ)
2.51188643150963e+05	(-4.76347824526817e+01dB,9.62315551737237e+01Ḟ)
2.63026799189543e+05	(-5.01465313746909e+01dB,9.32481566448357e+01Ḟ)
2.75422870333822e+05	(-5.19773710507974e+01dB,9.12865037890142e+01Ḟ)
2.88403150312666e+05	(-5.33104890085068e+01dB,8.98065199802873e+01Ḟ)
3.01995172040208e+05	(-5.42267642543971e+01dB,8.85689173697468e+01Ḟ)
3.16227766016844e+05	(-5.47507848821562e+01dB,8.74406358800565e+01Ḟ)
3.31131121482598e+05	(-5.48647323793256e+01dB,8.63245707630446e+01Ḟ)
3.46736850452539e+05	(-5.45044356783366e+01dB,8.51188101262724e+01Ḟ)
3.63078054770109e+05	(-5.35336827652351e+01dB,8.36637728399356e+01Ḟ)
3.80189396320569e+05	(-5.16656366216278e+01dB,8.15985239707232e+01Ḟ)
3.98107170553505e+05	(-4.81817511540201e+01dB,7.76953587719452e+01Ḟ)
4.16869383470344e+05	(-4.02926756956255e+01dB,6.26460703508231e+01Ḟ)
4.36515832240175e+05	(-3.94234657668287e+01dB,-6.86629318140814e+01Ḟ)
4.57088189614884e+05	(-4.86454514676032e+01dB,-8.69190115432332e+01Ḟ)
4.78630092322648e+05	(-5.27617972785325e+01dB,-9.12551002551642e+01Ḟ)
