Freq.	V(n028)
Step Information: Run=1  (Step: 1/100)
1.00000000000000e+00	(-1.38242795095819e-01dB,-5.44464277137084e-01°)
1.04712854805090e+00	(-1.38281654382922e-01dB,-5.70122361170475e-01°)
1.09647819614319e+00	(-1.38324262343279e-01dB,-5.96989417638773e-01°)
1.14815362149688e+00	(-1.38370980560803e-01dB,-6.25122385764228e-01°)
1.20226443461741e+00	(-1.38422205488579e-01dB,-6.54580882617788e-01°)
1.25892541179417e+00	(-1.38478371808444e-01dB,-6.85427328496496e-01°)
1.31825673855641e+00	(-1.38539956116378e-01dB,-7.17727078071870e-01°)
1.38038426460289e+00	(-1.38607480960627e-01dB,-7.51548557597796e-01°)
1.44543977074593e+00	(-1.38681519269934e-01dB,-7.86963408405719e-01°)
1.51356124843621e+00	(-1.38762699206937e-01dB,-8.24046636982563e-01°)
1.58489319246111e+00	(-1.38851709488872e-01dB,-8.62876771913650e-01°)
1.65958690743756e+00	(-1.38949305219375e-01dB,-9.03536027966476e-01°)
1.73780082874938e+00	(-1.39056314282163e-01dB,-9.46110477632802e-01°)
1.81970085860999e+00	(-1.39173644347102e-01dB,-9.90690230430684e-01°)
1.90546071796325e+00	(-1.39302290551507e-01dB,-1.03736962028793e+00°)
1.99526231496888e+00	(-1.39443343917464e-01dB,-1.08624740132477e+00°)
2.08929613085404e+00	(-1.39598000577275e-01dB,-1.13742695238157e+00°)
2.18776162394956e+00	(-1.39767571884808e-01dB,-1.19101649062413e+00°)
2.29086765276778e+00	(-1.39953495494980e-01dB,-1.24712929457029e+00°)
2.39883291901949e+00	(-1.40157347505560e-01dB,-1.30588393688987e+00°)
2.51188643150958e+00	(-1.40380855761977e-01dB,-1.36740452733018e+00°)
2.63026799189539e+00	(-1.40625914433904e-01dB,-1.43182096611959e+00°)
2.75422870333817e+00	(-1.40894599986794e-01dB,-1.49926920819559e+00°)
2.88403150312661e+00	(-1.41189188678205e-01dB,-1.56989153860876e+00°)
3.01995172040202e+00	(-1.41512175724288e-01dB,-1.64383685943796e+00°)
3.16227766016839e+00	(-1.41866296292837e-01dB,-1.72126098854545e+00°)
3.31131121482592e+00	(-1.42254548495700e-01dB,-1.80232697048044e+00°)
3.46736850452532e+00	(-1.42680218567312e-01dB,-1.88720539982245e+00°)
3.63078054770102e+00	(-1.43146908434315e-01dB,-1.97607475722154e+00°)
3.80189396320562e+00	(-1.43658565899205e-01dB,-2.06912175837152e+00°)
3.98107170553498e+00	(-1.44219517680418e-01dB,-2.16654171608778e+00°)
4.16869383470336e+00	(-1.44834505574604e-01dB,-2.26853891562595e+00°)
4.36515832240167e+00	(-1.45508726027317e-01dB,-2.37532700330813e+00°)
4.57088189614876e+00	(-1.46247873426323e-01dB,-2.48712938844066e+00°)
4.78630092322640e+00	(-1.47058187457230e-01dB,-2.60417965842001e+00°)
5.01187233627274e+00	(-1.47946504890409e-01dB,-2.72672200681347e+00°)
5.24807460249774e+00	(-1.48920316198250e-01dB,-2.85501167406867e+00°)
5.49540873857626e+00	(-1.49987827436859e-01dB,-2.98931540035573e+00°)
5.75439937337159e+00	(-1.51158027860260e-01dB,-3.12991188986505e+00°)
6.02559586074359e+00	(-1.52440763773341e-01dB,-3.27709228567244e+00°)
6.30957344480195e+00	(-1.53846819166098e-01dB,-3.43116065405658e+00°)
6.60693448007598e+00	(-1.55388003718545e-01dB,-3.59243447684271e+00°)
6.91830970918939e+00	(-1.57077248804260e-01dB,-3.76124515005569e+00°)
7.24435960074992e+00	(-1.58928712166529e-01dB,-3.93793848676503e+00°)
7.58577575029186e+00	(-1.60957891988565e-01dB,-4.12287522158628e+00°)
7.94328234724284e+00	(-1.63181751122513e-01dB,-4.31643151381188e+00°)
8.31763771102674e+00	(-1.65618852294767e-01dB,-4.51899944556778e+00°)
8.70963589956084e+00	(-1.68289505142349e-01dB,-4.73098751076606e+00°)
9.12010839355913e+00	(-1.71215925990306e-01dB,-4.95282108987898e+00°)
9.54992586021439e+00	(-1.74422411312323e-01dB,-5.18494290473679e+00°)
1.00000000000000e+01	(-1.77935525860495e-01dB,-5.42781344661318e+00°)
1.04712854805090e+01	(-1.81784306478173e-01dB,-5.68191136980579e+00°)
1.09647819614319e+01	(-1.86000482631366e-01dB,-5.94773384173305e+00°)
1.14815362149689e+01	(-1.90618714707805e-01dB,-6.22579683924193e+00°)
1.20226443461742e+01	(-1.95676851124240e-01dB,-6.51663537933894e+00°)
1.25892541179417e+01	(-2.01216205265368e-01dB,-6.82080367091999e+00°)
1.31825673855641e+01	(-2.07281853221439e-01dB,-7.13887517226464e+00°)
1.38038426460289e+01	(-2.13922953226997e-01dB,-7.47144253706631e+00°)
1.44543977074593e+01	(-2.21193087580134e-01dB,-7.81911742961049e+00°)
1.51356124843621e+01	(-2.29150627674591e-01dB,-8.18253018736559e+00°)
1.58489319246112e+01	(-2.37859122564278e-01dB,-8.56232930673482e+00°)
1.65958690743757e+01	(-2.47387711215930e-01dB,-8.95918072504797e+00°)
1.73780082874938e+01	(-2.57811558260346e-01dB,-9.37376686907216e+00°)
1.81970085860999e+01	(-2.69212312632874e-01dB,-9.80678543742964e+00°)
1.90546071796326e+01	(-2.81678587970289e-01dB,-1.02589478813830e+01°)
1.99526231496889e+01	(-2.95306463000827e-01dB,-1.07309775455555e+01°)
2.08929613085405e+01	(-3.10199999409287e-01dB,-1.12236074274065e+01°)
2.18776162394956e+01	(-3.26471773770225e-01dB,-1.17375775117716e+01°)
2.29086765276778e+01	(-3.44243419091102e-01dB,-1.22736316347183e+01°)
2.39883291901950e+01	(-3.63646170318779e-01dB,-1.28325138294685e+01°)
2.51188643150959e+01	(-3.84821406773274e-01dB,-1.34149641065351e+01°)
2.63026799189540e+01	(-4.07921182937355e-01dB,-1.40217136206872e+01°)
2.75422870333818e+01	(-4.33108737313907e-01dB,-1.46534791792803e+01°)
2.88403150312662e+01	(-4.60558967186707e-01dB,-1.53109570502020e+01°)
3.01995172040203e+01	(-4.90458855115683e-01dB,-1.59948160335839e+01°)
3.16227766016840e+01	(-5.23007830893391e-01dB,-1.67056897699511e+01°)
3.31131121482593e+01	(-5.58418050545326e-01dB,-1.74441682690554e+01°)
3.46736850452534e+01	(-5.96914571845677e-01dB,-1.82107886586975e+01°)
3.63078054770103e+01	(-6.38735403845173e-01dB,-1.90060251717686e+01°)
3.80189396320563e+01	(-6.84131406192138e-01dB,-1.98302784128388e+01°)
3.98107170553500e+01	(-7.33366012716323e-01dB,-2.06838639730613e+01°)
4.16869383470338e+01	(-7.86714753027792e-01dB,-2.15670004939119e+01°)
4.36515832240169e+01	(-8.44464545936415e-01dB,-2.24797973160793e+01°)
4.57088189614878e+01	(-9.06912739554262e-01dB,-2.34222418890207e+01°)
4.78630092322641e+01	(-9.74365875200947e-01dB,-2.43941871583137e+01°)
5.01187233627275e+01	(-1.04713815589744e+00dB,-2.53953391904938e+01°)
5.24807460249776e+01	(-1.12554960548812e+00dB,-2.64252453366051e+01°)
5.49540873857628e+01	(-1.20992391136216e+00dB,-2.74832832738121e+01°)
5.75439937337161e+01	(-1.30058595242161e+00dB,-2.85686512962057e+01°)
6.02559586074362e+01	(-1.39785902424658e+00dB,-2.96803602482564e+01°)
6.30957344480197e+01	(-1.50206178515952e+00dB,-3.08172275038470e+01°)
6.60693448007600e+01	(-1.61350495970310e+00dB,-3.19778733872613e+01°)
6.91830970918941e+01	(-1.73248784940231e+00dB,-3.31607204070991e+01°)
7.24435960074995e+01	(-1.85929471390619e+00dB,-3.43639956277987e+01°)
7.58577575029189e+01	(-1.99419109787770e+00dB,-3.55857364353940e+01°)
7.94328234724287e+01	(-2.13742018945957e+00dB,-3.68237998648247e+01°)
8.31763771102677e+01	(-2.28919930385703e+00dB,-3.80758755478959e+01°)
8.70963589956087e+01	(-2.44971658974036e+00dB,-3.93395022177975e+01°)
9.12010839355916e+01	(-2.61912805607591e+00dB,-4.06120875738120e+01°)
9.54992586021443e+01	(-2.79755501222299e+00dB,-4.18909311755670e+01°)
1.00000000000001e+02	(-2.98508200454056e+00dB,-4.31732499081304e+01°)
1.04712854805091e+02	(-3.18175531859690e+00dB,-4.44562054456730e+01°)
1.09647819614319e+02	(-3.38758209793335e+00dB,-4.57369330503519e+01°)
1.14815362149689e+02	(-3.60253010918704e+00dB,-4.70125709809402e+01°)
1.20226443461742e+02	(-3.82652816040582e+00dB,-4.82802897573249e+01°)
1.25892541179418e+02	(-4.05946715600156e+00dB,-4.95373205343388e+01°)
1.31825673855642e+02	(-4.30120174938027e+00dB,-5.07809818810629e+01°)
1.38038426460290e+02	(-4.55155253420632e+00dB,-5.20087043364708e+01°)
1.44543977074594e+02	(-4.81030869861296e+00dB,-5.32180522136518e+01°)
1.51356124843622e+02	(-5.07723105427982e+00dB,-5.44067422456538e+01°)
1.58489319246113e+02	(-5.35205534463105e+00dB,-5.55726587980324e+01°)
1.65958690743757e+02	(-5.63449573353443e+00dB,-5.67138655081780e+01°)
1.73780082874939e+02	(-5.92424837757220e+00dB,-5.78286133415421e+01°)
1.81970085861000e+02	(-6.22099499064142e+00dB,-5.89153451733619e+01°)
1.90546071796326e+02	(-6.52440631858971e+00dB,-5.99726971062862e+01°)
1.99526231496890e+02	(-6.83414545292401e+00dB,-6.09994968160777e+01°)
2.08929613085406e+02	(-7.14987092544551e+00dB,-6.19947592777661e+01°)
2.18776162394957e+02	(-7.47123953910379e+00dB,-6.29576802633005e+01°)
2.29086765276779e+02	(-7.79790890367404e+00dB,-6.38876280202886e+01°)
2.39883291901951e+02	(-8.12953965741922e+00dB,-6.47841335422044e+01°)
2.51188643150960e+02	(-8.46579736725783e+00dB,-6.56468798264732e+01°)
2.63026799189540e+02	(-8.80635410980829e+00dB,-6.64756904914172e+01°)
2.75422870333819e+02	(-9.15088974387673e+00dB,-6.72705180894279e+01°)
2.88403150312663e+02	(-9.49909289147157e+00dB,-6.80314324149755e+01°)
3.01995172040204e+02	(-9.85066164933377e+00dB,-6.87586090648575e+01°)
3.16227766016841e+02	(-1.02053040564186e+01dB,-6.94523184665899e+01°)
3.31131121482594e+02	(-1.05627383449390e+01dB,-7.01129155507963e+01°)
3.46736850452535e+02	(-1.09226930036992e+01dB,-7.07408302060186e+01°)
3.63078054770105e+02	(-1.12849066827316e+01dB,-7.13365586203425e+01°)
3.80189396320565e+02	(-1.16491279679080e+01dB,-7.19006555839336e+01°)
3.98107170553501e+02	(-1.20151150534201e+01dB,-7.24337278000975e+01°)
4.16869383470339e+02	(-1.23826353389774e+01dB,-7.29364282295427e+01°)
4.36515832240170e+02	(-1.27514649773925e+01dB,-7.34094514727711e+01°)
4.57088189614879e+02	(-1.31213883970110e+01dB,-7.38535301783813e+01°)
4.78630092322643e+02	(-1.34921978222734e+01dB,-7.42694324499136e+01°)
5.01187233627277e+02	(-1.38636928146089e+01dB,-7.46579602100352e+01°)
5.24807460249778e+02	(-1.42356798548643e+01dB,-7.50199484676688e+01°)
5.49540873857630e+02	(-1.46079719875463e+01dB,-7.53562654204717e+01°)
5.75439937337163e+02	(-1.49803885462621e+01dB,-7.56678133112811e+01°)
6.02559586074364e+02	(-1.53527549787965e+01dB,-7.59555299422737e+01°)
6.30957344480200e+02	(-1.57249027891784e+01dB,-7.62203907342866e+01°)
6.60693448007603e+02	(-1.60966696127356e+01dB,-7.64634112008266e+01°)
6.91830970918944e+02	(-1.64678994383861e+01dB,-7.66856496867905e+01°)
7.24435960074998e+02	(-1.68384429900997e+01dB,-7.68882102011480e+01°)
7.58577575029192e+02	(-1.72081582764559e+01dB,-7.70722451513796e+01°)
7.94328234724290e+02	(-1.75769113133494e+01dB,-7.72389577663347e+01°)
8.31763771102680e+02	(-1.79445770200446e+01dB,-7.73896039746801e+01°)
8.70963589956090e+02	(-1.83110402828668e+01dB,-7.75254934900344e+01°)
9.12010839355920e+02	(-1.86761971738126e+01dB,-7.76479898433106e+01°)
9.54992586021446e+02	(-1.90399563033289e+01dB,-7.77585091001368e+01°)
1.00000000000001e+03	(-1.94022402776240e+01dB,-7.78585170090576e+01°)
1.04712854805091e+03	(-1.97629872214192e+01dB,-7.79495243470704e+01°)
1.09647819614320e+03	(-2.01221523174673e+01dB,-7.80330802652124e+01°)
1.14815362149690e+03	(-2.04797093050381e+01dB,-7.81107634900143e+01°)
1.20226443461743e+03	(-2.08356518715842e+01dB,-7.81841713074505e+01°)
1.25892541179418e+03	(-2.11899948657731e+01dB,-7.82549063439421e+01°)
1.31825673855642e+03	(-2.15427752568161e+01dB,-7.83245612618823e+01°)
1.38038426460290e+03	(-2.18940527653476e+01dB,-7.83947016010898e+01°)
1.44543977074594e+03	(-2.22439100956726e+01dB,-7.84668471167828e+01°)
1.51356124843623e+03	(-2.25924527084415e+01dB,-7.85424520816510e+01°)
1.58489319246113e+03	(-2.29398080868358e+01dB,-7.86228851257479e+01°)
1.65958690743758e+03	(-2.32861244678757e+01dB,-7.87094092739544e+01°)
1.73780082874940e+03	(-2.36315690327451e+01dB,-7.88031628978022e+01°)
1.81970085861001e+03	(-2.39763255749093e+01dB,-7.89051423188615e+01°)
1.90546071796327e+03	(-2.43205916907281e+01dB,-7.90161867793946e+01°)
1.99526231496890e+03	(-2.46645755624361e+01dB,-7.91369664304463e+01°)
2.08929613085406e+03	(-2.50084924258797e+01dB,-7.92679738795397e+01°)
2.18776162394958e+03	(-2.53525608334673e+01dB,-7.94095196951717e+01°)
2.29086765276780e+03	(-2.56969988349045e+01dB,-7.95617320923740e+01°)
2.39883291901952e+03	(-2.60420202034190e+01dB,-7.97245608345599e+01°)
2.51188643150961e+03	(-2.63878308328840e+01dB,-7.98977851951972e+01°)
2.63026799189541e+03	(-2.67346254217318e+01dB,-8.00810256422569e+01°)
2.75422870333820e+03	(-2.70825845436244e+01dB,-8.02737587515161e+01°)
2.88403150312664e+03	(-2.74318721838695e+01dB,-8.04753347318064e+01°)
3.01995172040205e+03	(-2.77826337962310e+01dB,-8.06849968631022e+01°)
3.16227766016842e+03	(-2.81349949089815e+01dB,-8.09019021099598e+01°)
3.31131121482595e+03	(-2.84890602836276e+01dB,-8.11251421774802e+01°)
3.46736850452536e+03	(-2.88449136063709e+01dB,-8.13537643204644e+01°)
3.63078054770106e+03	(-2.92026176723692e+01dB,-8.15867912919121e+01°)
3.80189396320566e+03	(-2.95622150071352e+01dB,-8.18232399159072e+01°)
3.98107170553503e+03	(-2.99237288583973e+01dB,-8.20621378830246e+01°)
4.16869383470341e+03	(-3.02871644854976e+01dB,-8.23025384846749e+01°)
4.36515832240172e+03	(-3.06525106715686e+01dB,-8.25435331183169e+01°)
4.57088189614881e+03	(-3.10197413857334e+01dB,-8.27842615017530e+01°)
4.78630092322645e+03	(-3.13888175276441e+01dB,-8.30239196271373e+01°)
5.01187233627279e+03	(-3.17596886939825e+01dB,-8.32617655610361e+01°)
5.24807460249780e+03	(-3.21322949152629e+01dB,-8.34971232547670e+01°)
5.49540873857632e+03	(-3.25065683206667e+01dB,-8.37293845695728e+01°)
5.75439937337165e+03	(-3.28824346980474e+01dB,-8.39580097453250e+01°)
6.02559586074366e+03	(-3.32598149251977e+01dB,-8.41825265514897e+01°)
6.30957344480202e+03	(-3.36386262565954e+01dB,-8.44025283574909e+01°)
6.60693448007605e+03	(-3.40187834569217e+01dB,-8.46176713489984e+01°)
6.91830970918946e+03	(-3.44001997785730e+01dB,-8.48276710995478e+01°)
7.24435960075000e+03	(-3.47827877851290e+01dB,-8.50322986855474e+01°)
7.58577575029195e+03	(-3.51664600263679e+01dB,-8.52313765090902e+01°)
7.94328234724293e+03	(-3.55511295730138e+01dB,-8.54247739686411e+01°)
8.31763771102683e+03	(-3.59367104211033e+01dB,-8.56124030938336e+01°)
8.70963589956093e+03	(-3.63231177767944e+01dB,-8.57942142381503e+01°)
9.12010839355923e+03	(-3.67102682327635e+01dB,-8.59701919027708e+01°)
9.54992586021450e+03	(-3.70980798471636e+01dB,-8.61403507466560e+01°)
1.00000000000001e+04	(-3.74864721355832e+01dB,-8.63047318221673e+01°)
1.04712854805092e+04	(-3.78753659856390e+01dB,-8.64633990621464e+01°)
1.09647819614320e+04	(-3.82646835028562e+01dB,-8.66164360333197e+01°)
1.14815362149690e+04	(-3.86543477953954e+01dB,-8.67639429619407e+01°)
1.20226443461743e+04	(-3.90442827040360e+01dB,-8.69060340305272e+01°)
1.25892541179419e+04	(-3.94344124826640e+01dB,-8.70428349391506e+01°)
1.31825673855643e+04	(-3.98246614333559e+01dB,-8.71744807207438e+01°)
1.38038426460291e+04	(-4.02149534990297e+01dB,-8.73011137970991e+01°)
1.44543977074595e+04	(-4.06052118155504e+01dB,-8.74228822603983e+01°)
1.51356124843623e+04	(-4.09953582241366e+01dB,-8.75399383640781e+01°)
1.58489319246114e+04	(-4.13853127439199e+01dB,-8.76524372064158e+01°)
1.65958690743759e+04	(-4.17749930035393e+01dB,-8.77605355902787e+01°)
1.73780082874940e+04	(-4.21643136297219e+01dB,-8.78643910429002e+01°)
1.81970085861001e+04	(-4.25531855898709e+01dB,-8.79641609802245e+01°)
1.90546071796328e+04	(-4.29415154847626e+01dB,-8.80600020012198e+01°)
1.99526231496891e+04	(-4.33292047865090e+01dB,-8.81520692985374e+01°)
2.08929613085407e+04	(-4.37161490159708e+01dB,-8.82405161729368e+01°)
2.18776162394959e+04	(-4.41022368527722e+01dB,-8.83254936399632e+01°)
2.29086765276781e+04	(-4.44873491699640e+01dB,-8.84071501184396e+01°)
2.39883291901953e+04	(-4.48713579841693e+01dB,-8.84856311913792e+01°)
2.51188643150962e+04	(-4.52541253107085e+01dB,-8.85610794309470e+01°)
2.63026799189542e+04	(-4.56355019116874e+01dB,-8.86336342800667e+01°)
2.75422870333821e+04	(-4.60153259233297e+01dB,-8.87034319842066e+01°)
2.88403150312665e+04	(-4.63934213468672e+01dB,-8.87706055677559e+01°)
3.01995172040207e+04	(-4.67695963850400e+01dB,-8.88352848502534e+01°)
3.16227766016843e+04	(-4.71436416036193e+01dB,-8.88975964985357e+01°)
3.31131121482597e+04	(-4.75153278942701e+01dB,-8.89576641116571e+01°)
3.46736850452537e+04	(-4.78844042114334e+01dB,-8.90156083362016e+01°)
3.63078054770107e+04	(-4.82505950515781e+01dB,-8.90715470103754e+01°)
3.80189396320568e+04	(-4.86135976380243e+01dB,-8.91255953360539e+01°)
3.98107170553504e+04	(-4.89730787683620e+01dB,-8.91778660787828e+01°)
4.16869383470342e+04	(-4.93286712740431e+01dB,-8.92284697966234e+01°)
4.36515832240173e+04	(-4.96799700327004e+01dB,-8.92775150997223e+01°)
4.57088189614883e+04	(-5.00265274627479e+01dB,-8.93251089436271e+01°)
4.78630092322647e+04	(-5.03678484163219e+01dB,-8.93713569606997e+01°)
5.01187233627281e+04	(-5.07033843699794e+01dB,-8.94163638356017e+01°)
5.24807460249782e+04	(-5.10325267918905e+01dB,-8.94602337328080e+01°)
5.49540873857634e+04	(-5.13545995384068e+01dB,-8.95030707866108e+01°)
5.75439937337167e+04	(-5.16688501003186e+01dB,-8.95449796672657e+01°)
6.02559586074368e+04	(-5.19744394777742e+01dB,-8.95860662410743e+01°)
6.30957344480204e+04	(-5.22704304099431e+01dB,-8.96264383476366e+01°)
6.60693448007608e+04	(-5.25557736172296e+01dB,-8.96662067247484e+01°)
6.91830970918949e+04	(-5.28292916249226e+01dB,-8.97054861211812e+01°)
7.24435960075003e+04	(-5.30896596201860e+01dB,-8.97443966508959e+01°)
7.58577575029197e+04	(-5.33353826387866e+01dB,-8.97830654606511e+01°)
7.94328234724296e+04	(-5.35647681688754e+01dB,-8.98216288087431e+01°)
8.31763771102686e+04	(-5.37758929745590e+01dB,-8.98602346892224e+01°)
8.70963589956096e+04	(-5.39665625495284e+01dB,-8.98990461887122e+01°)
9.12010839355926e+04	(-5.41342610619048e+01dB,-8.99382458402756e+01°)
9.54992586021453e+04	(-5.42760888711221e+01dB,-8.99780413540649e+01°)
1.00000000000002e+05	(-5.43886835695944e+01dB,-9.00186732796805e+01°)
1.04712854805092e+05	(-5.44681188402423e+01dB,-9.00604254270601e+01°)
1.09647819614321e+05	(-5.45097729220266e+01dB,-9.01036393045591e+01°)
1.14815362149690e+05	(-5.45081546300592e+01dB,-9.01487345366897e+01°)
1.20226443461744e+05	(-5.44566688048529e+01dB,-9.01962384045616e+01°)
1.25892541179419e+05	(-5.43472931963645e+01dB,-9.02468296978347e+01°)
1.31825673855643e+05	(-5.41701222133875e+01dB,-9.03014057454187e+01°)
1.38038426460291e+05	(-5.39127040645719e+01dB,-9.03611883927575e+01°)
1.44543977074595e+05	(-5.35590451716184e+01dB,-9.04278982921958e+01°)
1.51356124843624e+05	(-5.30880548258726e+01dB,-9.05040552695403e+01°)
1.58489319246114e+05	(-5.24709975062436e+01dB,-9.05935260829987e+01°)
1.65958690743759e+05	(-5.16670694098951e+01dB,-9.07025956855223e+01°)
1.73780082874941e+05	(-5.06151312197181e+01dB,-9.08422573291796e+01°)
1.81970085861002e+05	(-4.92166906723652e+01dB,-9.10337200316785e+01°)
1.90546071796328e+05	(-4.72958756049150e+01dB,-9.13240234632958e+01°)
1.99526231496892e+05	(-4.44844861686863e+01dB,-9.18429447593794e+01°)
2.08929613085408e+05	(-3.97555027649255e+01dB,-9.31288646711767e+01°)
2.18776162394960e+05	(-2.67090709651643e+01dB,-1.03587673564042e+02°)
2.29086765276782e+05	(-3.55156294329948e+01dB,9.45286296612023e+01°)
2.39883291901954e+05	(-4.31047432923353e+01dB,9.16711702850285e+01°)
2.51188643150963e+05	(-4.71235290625444e+01dB,9.08707457269369e+01°)
2.63026799189543e+05	(-4.98035704903659e+01dB,9.04734740733978e+01°)
2.75422870333822e+05	(-5.17262721289285e+01dB,9.02212906407733e+01°)
2.88403150312666e+05	(-5.31179674548488e+01dB,9.00352490236144e+01°)
3.01995172040208e+05	(-5.40759792234369e+01dB,8.98821202262937e+01°)
3.16227766016844e+05	(-5.46326982884888e+01dB,8.97441126743934e+01°)
3.31131121482598e+05	(-5.47748365863530e+01dB,8.96087083753890e+01°)
3.46736850452539e+05	(-5.44416268469860e+01dB,8.94632242183090e+01°)
3.63078054770109e+05	(-5.35004637004625e+01dB,8.92883071444197e+01°)
3.80189396320569e+05	(-5.16698084571940e+01dB,8.90408726394416e+01°)
3.98107170553505e+05	(-4.82378144108009e+01dB,8.85760444141037e+01°)
4.16869383470344e+05	(-4.02176245468868e+01dB,8.67808275340868e+01°)
4.36515832240175e+05	(-3.74113967031732e+01dB,-8.66220265750730e+01°)
4.57088189614884e+05	(-4.81441763328015e+01dB,-8.94885286546135e+01°)
4.78630092322648e+05	(-5.24469878967053e+01dB,-9.00515186135429e+01°)
