Freq.	V(n028)
Step Information: Run=1  (Step: 1/100)
1.00000000000000e+00	(-1.37989309811349e-01dB,-5.29884906338849e-01Ḟ)
1.04712854805090e+00	(-1.38033082350909e-01dB,-5.54855309051485e-01Ḟ)
1.09647819614319e+00	(-1.38081077364188e-01dB,-5.81002189347468e-01Ḟ)
1.14815362149688e+00	(-1.38133702102247e-01dB,-6.08380942361886e-01Ḟ)
1.20226443461741e+00	(-1.38191403081257e-01dB,-6.37049566434601e-01Ḟ)
1.25892541179417e+00	(-1.38254669866235e-01dB,-6.67068784691111e-01Ḟ)
1.31825673855641e+00	(-1.38324039217294e-01dB,-6.98502172181440e-01Ḟ)
1.38038426460289e+00	(-1.38400099636482e-01dB,-7.31416288828236e-01Ḟ)
1.44543977074593e+00	(-1.38483496350165e-01dB,-7.65880818422362e-01Ḟ)
1.51356124843621e+00	(-1.38574936771175e-01dB,-8.01968713922640e-01Ḟ)
1.58489319246111e+00	(-1.38675196485489e-01dB,-8.39756349315382e-01Ḟ)
1.65958690743756e+00	(-1.38785125813768e-01dB,-8.79323678307379e-01Ḟ)
1.73780082874938e+00	(-1.38905657003411e-01dB,-9.20754400119830e-01Ḟ)
1.81970085860999e+00	(-1.39037812109781e-01dB,-9.64136132669788e-01Ḟ)
1.90546071796325e+00	(-1.39182711634300e-01dB,-1.00956059341452e+00Ḟ)
1.99526231496888e+00	(-1.39341583989438e-01dB,-1.05712378815496e+00Ḟ)
2.08929613085404e+00	(-1.39515775871128e-01dB,-1.10692620808499e+00Ḟ)
2.18776162394956e+00	(-1.39706763623554e-01dB,-1.15907303538251e+00Ḟ)
2.29086765276778e+00	(-1.39916165691663e-01dB,-1.21367435763275e+00Ḟ)
2.39883291901949e+00	(-1.40145756262459e-01dB,-1.27084539137267e+00Ḟ)
2.51188643150958e+00	(-1.40397480209649e-01dB,-1.33070671504819e+00Ḟ)
2.63026799189539e+00	(-1.40673469464346e-01dB,-1.39338451164879e+00Ḟ)
2.75422870333817e+00	(-1.40976060943509e-01dB,-1.45901082130435e+00Ḟ)
2.88403150312661e+00	(-1.41307816186350e-01dB,-1.52772380407860e+00Ḟ)
3.01995172040202e+00	(-1.41671542856048e-01dB,-1.59966801319671e+00Ḟ)
3.16227766016839e+00	(-1.42070318281614e-01dB,-1.67499467891522e+00Ḟ)
3.31131121482592e+00	(-1.42507515230083e-01dB,-1.75386200320523e+00Ḟ)
3.46736850452532e+00	(-1.42986830116094e-01dB,-1.83643546538230e+00Ḟ)
3.63078054770102e+00	(-1.43512313873910e-01dB,-1.92288813877157e+00Ḟ)
3.80189396320562e+00	(-1.44088405736497e-01dB,-2.01340101843120e+00Ḟ)
3.98107170553498e+00	(-1.44719970188552e-01dB,-2.10816335990084e+00Ḟ)
4.16869383470336e+00	(-1.45412337382677e-01dB,-2.20737302884154e+00Ḟ)
4.36515832240167e+00	(-1.46171347330521e-01dB,-2.31123686134870e+00Ḟ)
4.57088189614876e+00	(-1.47003398211485e-01dB,-2.41997103459803e+00Ḟ)
4.78630092322640e+00	(-1.47915499164197e-01dB,-2.53380144734798e+00Ḟ)
5.01187233627274e+00	(-1.48915327958654e-01dB,-2.65296410966582e+00Ḟ)
5.24807460249774e+00	(-1.50011293978171e-01dB,-2.77770554105615e+00Ḟ)
5.49540873857626e+00	(-1.51212606971628e-01dB,-2.90828317595682e+00Ḟ)
5.75439937337159e+00	(-1.52529352073292e-01dB,-3.04496577531547e+00Ḟ)
6.02559586074359e+00	(-1.53972571619459e-01dB,-3.18803384268136e+00Ḟ)
6.30957344480195e+00	(-1.55554354334447e-01dB,-3.33778004289498e+00Ḟ)
6.60693448007598e+00	(-1.57287932488745e-01dB,-3.49450962110392e+00Ḟ)
6.91830970918939e+00	(-1.59187787677074e-01dB,-3.65854081937345e+00Ḟ)
7.24435960074992e+00	(-1.61269765897692e-01dB,-3.83020528767752e+00Ḟ)
7.58577575029186e+00	(-1.63551202652136e-01dB,-4.00984848547892e+00Ḟ)
7.94328234724284e+00	(-1.66051058821793e-01dB,-4.19783006946752e+00Ḟ)
8.31763771102674e+00	(-1.68790068107986e-01dB,-4.39452426228968e+00Ḟ)
8.70963589956084e+00	(-1.71790896847844e-01dB,-4.60032019627989e+00Ḟ)
9.12010839355913e+00	(-1.75078317045896e-01dB,-4.81562222527285e+00Ḟ)
9.54992586021439e+00	(-1.78679393465732e-01dB,-5.04085019653134e+00Ḟ)
1.00000000000000e+01	(-1.82623685635795e-01dB,-5.27643967365608e+00Ḟ)
1.04712854805090e+01	(-1.86943465605334e-01dB,-5.52284210005152e+00Ḟ)
1.09647819614319e+01	(-1.91673952260961e-01dB,-5.78052489106910e+00Ḟ)
1.14815362149689e+01	(-1.96853562957245e-01dB,-6.04997144137900e+00Ḟ)
1.20226443461742e+01	(-2.02524183140567e-01dB,-6.33168103236885e+00Ḟ)
1.25892541179417e+01	(-2.08731454529294e-01dB,-6.62616862248021e+00Ḟ)
1.31825673855641e+01	(-2.15525082260716e-01dB,-6.93396450135102e+00Ḟ)
1.38038426460289e+01	(-2.22959161217280e-01dB,-7.25561378644390e+00Ḟ)
1.44543977074593e+01	(-2.31092521486013e-01dB,-7.59167573852038e+00Ḟ)
1.51356124843621e+01	(-2.39989092579656e-01dB,-7.94272286991304e+00Ḟ)
1.58489319246112e+01	(-2.49718285654201e-01dB,-8.30933981705334e+00Ḟ)
1.65958690743757e+01	(-2.60355392461238e-01dB,-8.69212194622513e+00Ḟ)
1.73780082874938e+01	(-2.71981999187515e-01dB,-9.09167365906967e+00Ḟ)
1.81970085860999e+01	(-2.84686412632950e-01dB,-9.50860636207613e+00Ḟ)
1.90546071796326e+01	(-2.98564095341305e-01dB,-9.94353606227134e+00Ḟ)
1.99526231496889e+01	(-3.13718105341254e-01dB,-1.03970805497042e+01Ḟ)
2.08929613085405e+01	(-3.30259535031107e-01dB,-1.08698561263137e+01Ḟ)
2.18776162394956e+01	(-3.48307942475305e-01dB,-1.13624738405673e+01Ḟ)
2.29086765276778e+01	(-3.67991766952473e-01dB,-1.18755351881307e+01Ḟ)
2.39883291901950e+01	(-3.89448719011452e-01dB,-1.24096272410874e+01Ḟ)
2.51188643150959e+01	(-4.12826133562578e-01dB,-1.29653171722056e+01Ḟ)
2.63026799189540e+01	(-4.38281272689744e-01dB,-1.35431461468189e+01Ḟ)
2.75422870333818e+01	(-4.65981562930747e-01dB,-1.41436225634891e+01Ḟ)
2.88403150312662e+01	(-4.96104749810125e-01dB,-1.47672146361446e+01Ḟ)
3.01995172040203e+01	(-5.28838950487435e-01dB,-1.54143423252731e+01Ḟ)
3.16227766016840e+01	(-5.64382583590316e-01dB,-1.60853686443929e+01Ḟ)
3.31131121482593e+01	(-6.02944153776040e-01dB,-1.67805903907073e+01Ḟ)
3.46736850452534e+01	(-6.44741867436113e-01dB,-1.75002283757983e+01Ḟ)
3.63078054770103e+01	(-6.90003055408198e-01dB,-1.82444172634205e+01Ḟ)
3.80189396320563e+01	(-7.38963378792929e-01dB,-1.90131951566715e+01Ḟ)
3.98107170553500e+01	(-7.91865795176423e-01dB,-1.98064931155378e+01Ḟ)
4.16869383470338e+01	(-8.48959264998339e-01dB,-2.06241248270106e+01Ḟ)
4.36515832240169e+01	(-9.10497181646956e-01dB,-2.14657766923242e+01Ḟ)
4.57088189614878e+01	(-9.76735514335755e-01dB,-2.23309986374236e+01Ḟ)
4.78630092322641e+01	(-1.04793066004164e+00dB,-2.32191959911062e+01Ḟ)
5.01187233627275e+01	(-1.12433700983402e+00dB,-2.41296228075062e+01Ḟ)
5.24807460249776e+01	(-1.20620424575693e+00dB,-2.50613770323629e+01Ḟ)
5.49540873857628e+01	(-1.29377439687270e+00dB,-2.60133979222437e+01Ḟ)
5.75439937337161e+01	(-1.38727869680657e+00dB,-2.69844661190041e+01Ḟ)
6.02559586074362e+01	(-1.48693429964256e+00dB,-2.79732067548855e+01Ḟ)
6.30957344480197e+01	(-1.59294092564419e+00dB,-2.89780959140900e+01Ḟ)
6.60693448007600e+01	(-1.70547752217181e+00dB,-2.99974707026912e+01Ḟ)
6.91830970918941e+01	(-1.82469903738184e+00dB,-3.10295430800586e+01Ḟ)
7.24435960074995e+01	(-1.95073341381361e+00dB,-3.20724174829210e+01Ḟ)
7.58577575029189e+01	(-2.08367891475998e+00dB,-3.31241121311431e+01Ḟ)
7.94328234724287e+01	(-2.22360189748315e+00dB,-3.41825837474685e+01Ḟ)
8.31763771102677e+01	(-2.37053514313924e+00dB,-3.52457552590393e+01Ḟ)
8.70963589956087e+01	(-2.52447684326325e+00dB,-3.63115458850641e+01Ḟ)
9.12010839355916e+01	(-2.68539032675451e+00dB,-3.73779028620989e+01Ḟ)
9.54992586021443e+01	(-2.85320458976981e+00dB,-3.84428339259044e+01Ḟ)
1.00000000000001e+02	(-3.02781566447695e+00dB,-3.95044395660604e+01Ḟ)
1.04712854805091e+02	(-3.20908883230599e+00dB,-4.05609440045587e+01Ḟ)
1.09647819614319e+02	(-3.39686165452350e+00dB,-4.16107238286487e+01Ḟ)
1.14815362149689e+02	(-3.59094775923273e+00dB,-4.26523332350963e+01Ḟ)
1.20226443461742e+02	(-3.79114129096010e+00dB,-4.36845249188991e+01Ḟ)
1.25892541179418e+02	(-3.99722189851911e+00dB,-4.47062657628679e+01Ḟ)
1.31825673855642e+02	(-4.20896011045499e+00dB,-4.57167466512306e+01Ḟ)
1.38038426460290e+02	(-4.42612292647936e+00dB,-4.67153859342240e+01Ḟ)
1.44543977074594e+02	(-4.64847943909830e+00dB,-4.77018263032390e+01Ḟ)
1.51356124843622e+02	(-4.87580629301704e+00dB,-4.86759250877086e+01Ḟ)
1.58489319246113e+02	(-5.10789279144824e+00dB,-4.96377382446870e+01Ḟ)
1.65958690743757e+02	(-5.34454546841089e+00dB,-5.05874985682367e+01Ḟ)
1.73780082874939e+02	(-5.58559196433978e+00dB,-5.15255888862885e+01Ḟ)
1.81970085861000e+02	(-5.83088406831335e+00dB,-5.24525112255384e+01Ḟ)
1.90546071796326e+02	(-6.08029982302306e+00dB,-5.33688530986829e+01Ḟ)
1.99526231496890e+02	(-6.33374462687908e+00dB,-5.42752521927418e+01Ḟ)
2.08929613085406e+02	(-6.59115130965556e+00dB,-5.51723608039768e+01Ḟ)
2.18776162394957e+02	(-6.85247920171885e+00dB,-5.60608113685246e+01Ḟ)
2.29086765276779e+02	(-7.11771225985992e+00dB,-5.69411843761210e+01Ḟ)
2.39883291901951e+02	(-7.38685635264254e+00dB,-5.78139798291486e+01Ḟ)
2.51188643150960e+02	(-7.65993584266916e+00dB,-5.86795932267131e+01Ḟ)
2.63026799189540e+02	(-7.93698963019415e+00dB,-5.95382968238002e+01Ḟ)
2.75422870333819e+02	(-8.21806684049993e+00dB,-6.03902266524464e+01Ḟ)
2.88403150312663e+02	(-8.50322234540928e+00dB,-6.12353755115579e+01Ḟ)
3.01995172040204e+02	(-8.79251230698386e+00dB,-6.20735918520132e+01Ḟ)
3.16227766016841e+02	(-9.08598991934386e+00dB,-6.29045842212170e+01Ḟ)
3.31131121482594e+02	(-9.38370150381939e+00dB,-6.37279307018589e+01Ḟ)
3.46736850452535e+02	(-9.68568308509703e+00dB,-6.45430925956899e+01Ḟ)
3.63078054770105e+02	(-9.99195754382537e+00dB,-6.53494314731138e+01Ḟ)
3.80189396320565e+02	(-1.03025324066781e+01dB,-6.61462286371616e+01Ḟ)
3.98107170553501e+02	(-1.06173983004930e+01dB,-6.69327060352952e+01Ḟ)
4.16869383470339e+02	(-1.09365280649360e+01dB,-6.77080476896605e+01Ḟ)
4.36515832240170e+02	(-1.12598764899297e+01dB,-6.84714207977156e+01Ḟ)
4.57088189614879e+02	(-1.15873806210756e+01dB,-6.92219957702750e+01Ḟ)
4.78630092322643e+02	(-1.19189605592031e+01dB,-6.99589646114090e+01Ḟ)
5.01187233627277e+02	(-1.22545206691916e+01dB,-7.06815571929376e+01Ḟ)
5.24807460249778e+02	(-1.25939511080504e+01dB,-7.13890551249713e+01Ḟ)
5.49540873857630e+02	(-1.29371295822888e+01dB,-7.20808030643007e+01Ḟ)
5.75439937337163e+02	(-1.32839232489689e+01dB,-7.27562174277304e+01Ḟ)
6.02559586074364e+02	(-1.36341906825135e+01dB,-7.34147925832324e+01Ḟ)
6.30957344480200e+02	(-1.39877838392799e+01dB,-7.40561046757510e+01Ḟ)
6.60693448007603e+02	(-1.43445499631507e+01dB,-7.46798133062110e+01Ḟ)
6.91830970918944e+02	(-1.47043333870601e+01dB,-7.52856613228534e+01Ḟ)
7.24435960074998e+02	(-1.50669771967713e+01dB,-7.58734730056220e+01Ḟ)
7.58577575029192e+02	(-1.54323247338259e+01dB,-7.64431509298424e+01Ḟ)
7.94328234724290e+02	(-1.58002209240221e+01dB,-7.69946717880266e+01Ḟ)
8.31763771102680e+02	(-1.61705134258548e+01dB,-7.75280814315290e+01Ḟ)
8.70963589956090e+02	(-1.65430535999735e+01dB,-7.80434893699379e+01Ḟ)
9.12010839355920e+02	(-1.69176973059124e+01dB,-7.85410629381874e+01Ḟ)
9.54992586021446e+02	(-1.72943055362104e+01dB,-7.90210213115935e+01Ḟ)
1.00000000000001e+03	(-1.76727449007072e+01dB,-7.94836295191379e+01Ḟ)
1.04712854805091e+03	(-1.80528879754523e+01dB,-7.99291925766419e+01Ḟ)
1.09647819614320e+03	(-1.84346135314541e+01dB,-8.03580498349077e+01Ḟ)
1.14815362149690e+03	(-1.88178066586204e+01dB,-8.07705696140355e+01Ḟ)
1.20226443461743e+03	(-1.92023587998410e+01dB,-8.11671441742299e+01Ḟ)
1.25892541179418e+03	(-1.95881677093899e+01dB,-8.15481850555823e+01Ḟ)
1.31825673855642e+03	(-1.99751373487931e+01dB,-8.19141188044587e+01Ḟ)
1.38038426460290e+03	(-2.03631777321273e+01dB,-8.22653830920544e+01Ḟ)
1.44543977074594e+03	(-2.07522047314492e+01dB,-8.26024232211323e+01Ḟ)
1.51356124843623e+03	(-2.11421398517888e+01dB,-8.29256890096441e+01Ḟ)
1.58489319246113e+03	(-2.15329099838899e+01dB,-8.32356320345414e+01Ḟ)
1.65958690743758e+03	(-2.19244471417111e+01dB,-8.35327032153137e+01Ḟ)
1.73780082874940e+03	(-2.23166881906014e+01dB,-8.38173507143600e+01Ḟ)
1.81970085861001e+03	(-2.27095745710730e+01dB,-8.40900181299554e+01Ḟ)
1.90546071796327e+03	(-2.31030520221972e+01dB,-8.43511429570950e+01Ḟ)
1.99526231496890e+03	(-2.34970703078603e+01dB,-8.46011552916694e+01Ḟ)
2.08929613085406e+03	(-2.38915829484264e+01dB,-8.48404767541054e+01Ḟ)
2.18776162394958e+03	(-2.42865469597524e+01dB,-8.50695196096410e+01Ḟ)
2.29086765276780e+03	(-2.46819226009946e+01dB,-8.52886860636770e+01Ḟ)
2.39883291901952e+03	(-2.50776731322104e+01dB,-8.54983677120848e+01Ḟ)
2.51188643150961e+03	(-2.54737645823978e+01dB,-8.56989451278609e+01Ḟ)
2.63026799189541e+03	(-2.58701655283126e+01dB,-8.58907875670598e+01Ḟ)
2.75422870333820e+03	(-2.62668468841600e+01dB,-8.60742527784608e+01Ḟ)
2.88403150312664e+03	(-2.66637817020519e+01dB,-8.62496869029012e+01Ḟ)
3.01995172040205e+03	(-2.70609449829642e+01dB,-8.64174244496199e+01Ḟ)
3.16227766016842e+03	(-2.74583134977975e+01dB,-8.65777883382810e+01Ḟ)
3.31131121482595e+03	(-2.78558656180466e+01dB,-8.67310899965861e+01Ḟ)
3.46736850452536e+03	(-2.82535811555061e+01dB,-8.68776295045254e+01Ḟ)
3.63078054770106e+03	(-2.86514412103803e+01dB,-8.70176957773632e+01Ḟ)
3.80189396320566e+03	(-2.90494280271234e+01dB,-8.71515667804096e+01Ḟ)
3.98107170553503e+03	(-2.94475248573028e+01dB,-8.72795097694905e+01Ḟ)
4.16869383470341e+03	(-2.98457158287546e+01dB,-8.74017815518033e+01Ḟ)
4.36515832240172e+03	(-3.02439858202863e+01dB,-8.75186287625472e+01Ḟ)
4.57088189614881e+03	(-3.06423203411664e+01dB,-8.76302881533330e+01Ḟ)
4.78630092322645e+03	(-3.10407054146334e+01dB,-8.77369868889333e+01Ḟ)
5.01187233627279e+03	(-3.14391274646473e+01dB,-8.78389428494235e+01Ḟ)
5.24807460249780e+03	(-3.18375732050989e+01dB,-8.79363649351971e+01Ḟ)
5.49540873857632e+03	(-3.22360295306816e+01dB,-8.80294533727190e+01Ḟ)
5.75439937337165e+03	(-3.26344834086222e+01dB,-8.81184000192170e+01Ḟ)
6.02559586074366e+03	(-3.30329217704455e+01dB,-8.82033886648046e+01Ḟ)
6.30957344480202e+03	(-3.34313314029375e+01dB,-8.82845953307828e+01Ḟ)
6.60693448007605e+03	(-3.38296988374419e+01dB,-8.83621885630949e+01Ḟ)
6.91830970918946e+03	(-3.42280102365983e+01dB,-8.84363297200988e+01Ḟ)
7.24435960075000e+03	(-3.46262512775980e+01dB,-8.85071732539920e+01Ḟ)
7.58577575029195e+03	(-3.50244070309876e+01dB,-8.85748669853673e+01Ḟ)
7.94328234724293e+03	(-3.54224618340056e+01dB,-8.86395523705042e+01Ḟ)
8.31763771102683e+03	(-3.58203991573785e+01dB,-8.87013647611071e+01Ḟ)
8.70963589956093e+03	(-3.62182014644361e+01dB,-8.87604336562929e+01Ḟ)
9.12010839355923e+03	(-3.66158500613299e+01dB,-8.88168829467107e+01Ḟ)
9.54992586021450e+03	(-3.70133249370529e+01dB,-8.88708311507400e+01Ḟ)
1.00000000000001e+04	(-3.74106045918569e+01dB,-8.89223916427731e+01Ḟ)
1.04712854805092e+04	(-3.78076658525510e+01dB,-8.89716728736333e+01Ḟ)
1.09647819614320e+04	(-3.82044836730397e+01dB,-8.90187785832192e+01Ḟ)
1.14815362149690e+04	(-3.86010309183112e+01dB,-8.90638080055014e+01Ḟ)
1.20226443461743e+04	(-3.89972781299244e+01dB,-8.91068560660221e+01Ḟ)
1.25892541179419e+04	(-3.93931932708609e+01dB,-8.91480135720742e+01Ḟ)
1.31825673855643e+04	(-3.97887414473992e+01dB,-8.91873673957512e+01Ḟ)
1.38038426460291e+04	(-4.01838846054359e+01dB,-8.92250006500791e+01Ḟ)
1.44543977074595e+04	(-4.05785811984171e+01dB,-8.92609928584487e+01Ḟ)
1.51356124843623e+04	(-4.09727858237461e+01dB,-8.92954201175817e+01Ḟ)
1.58489319246114e+04	(-4.13664488241992e+01dB,-8.93283552542681e+01Ḟ)
1.65958690743759e+04	(-4.17595158505059e+01dB,-8.93598679761229e+01Ḟ)
1.73780082874940e+04	(-4.21519273808230e+01dB,-8.93900250166131e+01Ḟ)
1.81970085861001e+04	(-4.25436181923475e+01dB,-8.94188902746141e+01Ḟ)
1.90546071796328e+04	(-4.29345167797668e+01dB,-8.94465249487566e+01Ḟ)
1.99526231496891e+04	(-4.33245447146216e+01dB,-8.94729876668348e+01Ḟ)
2.08929613085407e+04	(-4.37136159389448e+01dB,-8.94983346105492e+01Ḟ)
2.18776162394959e+04	(-4.41016359857291e+01dB,-8.95226196358654e+01Ḟ)
2.29086765276781e+04	(-4.44885011178456e+01dB,-8.95458943892807e+01Ḟ)
2.39883291901953e+04	(-4.48740973759674e+01dB,-8.95682084202986e+01Ḟ)
2.51188643150962e+04	(-4.52582995248204e+01dB,-8.95896092904254e+01Ḟ)
2.63026799189542e+04	(-4.56409698856587e+01dB,-8.96101426790207e+01Ḟ)
2.75422870333821e+04	(-4.60219570412129e+01dB,-8.96298524863523e+01Ḟ)
2.88403150312665e+04	(-4.64010943974323e+01dB,-8.96487809342344e+01Ḟ)
3.01995172040207e+04	(-4.67781985840979e+01dB,-8.96669686646570e+01Ḟ)
3.16227766016843e+04	(-4.71530676737441e+01dB,-8.96844548368584e+01Ḟ)
3.31131121482597e+04	(-4.75254791952189e+01dB,-8.97012772233386e+01Ḟ)
3.46736850452537e+04	(-4.78951879145383e+01dB,-8.97174723053780e+01Ḟ)
3.63078054770107e+04	(-4.82619233513187e+01dB,-8.97330753687003e+01Ḟ)
3.80189396320568e+04	(-4.86253869938533e+01dB,-8.97481206000161e+01Ḟ)
3.98107170553504e+04	(-4.89852491696360e+01dB,-8.97626411853083e+01Ḟ)
4.16869383470342e+04	(-4.93411455205797e+01dB,-8.97766694108679e+01Ḟ)
4.36515832240173e+04	(-4.96926730230184e+01dB,-8.97902367682880e+01Ḟ)
4.57088189614883e+04	(-5.00393854814024e+01dB,-8.98033740648624e+01Ḟ)
4.78630092322647e+04	(-5.03807884108926e+01dB,-8.98161115411498e+01Ḟ)
5.01187233627281e+04	(-5.07163332071329e+01dB,-8.98284789978628e+01Ḟ)
5.24807460249782e+04	(-5.10454104804557e+01dB,-8.98405059347536e+01Ḟ)
5.49540873857634e+04	(-5.13673424054647e+01dB,-8.98522217048357e+01Ḟ)
5.75439937337167e+04	(-5.16813739037894e+01dB,-8.98636556881547e+01Ḟ)
6.02559586074368e+04	(-5.19866624357026e+01dB,-8.98748374904661e+01Ḟ)
6.30957344480204e+04	(-5.22822661223859e+01dB,-8.98857971737141e+01Ḟ)
6.60693448007608e+04	(-5.25671298510137e+01dB,-8.98965655272475e+01Ḟ)
6.91830970918949e+04	(-5.28400689240784e+01dB,-8.99071743914979e+01Ḟ)
7.24435960075003e+04	(-5.30997496949190e+01dB,-8.99176570496521e+01Ḟ)
7.58577575029197e+04	(-5.33446664724751e+01dB,-8.99280487081327e+01Ḟ)
7.94328234724296e+04	(-5.35731137643963e+01dB,-8.99383870941235e+01Ḟ)
8.31763771102686e+04	(-5.37831526362365e+01dB,-8.99487132089255e+01Ḟ)
8.70963589956096e+04	(-5.39725695621534e+01dB,-8.99590722911778e+01Ḟ)
9.12010839355926e+04	(-5.41388255790130e+01dB,-8.99695150663454e+01Ḟ)
9.54992586021453e+04	(-5.42789927539765e+01dB,-8.99800993922827e+01Ḟ)
1.00000000000002e+05	(-5.43896738149041e+01dB,-8.99908924615328e+01Ḟ)
1.04712854805092e+05	(-5.44668990805421e+01dB,-9.00019738000779e+01Ḟ)
1.09647819614321e+05	(-5.45059922479242e+01dB,-9.00134394280601e+01Ḟ)
1.14815362149690e+05	(-5.45013926173769e+01dB,-9.00254077534517e+01Ḟ)
1.20226443461744e+05	(-5.44464150426949e+01dB,-9.00380281151094e+01Ḟ)
1.25892541179419e+05	(-5.43329186419091e+01dB,-9.00514934918447e+01Ḟ)
1.31825673855643e+05	(-5.41508380385322e+01dB,-9.00660599766064e+01Ḟ)
1.38038426460291e+05	(-5.38875007004883e+01dB,-9.00820776525881e+01Ḟ)
1.44543977074595e+05	(-5.35265987319123e+01dB,-9.01000415400472e+01Ḟ)
1.51356124843624e+05	(-5.30465771852126e+01dB,-9.01206797428274e+01Ḟ)
1.58489319246114e+05	(-5.24179833158576e+01dB,-9.01451149686028e+01Ḟ)
1.65958690743759e+05	(-5.15988407177876e+01dB,-9.01751823203482e+01Ḟ)
1.73780082874941e+05	(-5.05259469516357e+01dB,-9.02141139681505e+01Ḟ)
1.81970085861002e+05	(-4.90968012106699e+01dB,-9.02682032124227e+01Ḟ)
1.90546071796328e+05	(-4.71265506229789e+01dB,-9.03515955780034e+01Ḟ)
1.99526231496892e+05	(-4.42217943726019e+01dB,-9.05041931245236e+01Ḟ)
2.08929613085408e+05	(-3.92470482626727e+01dB,-9.08996848881928e+01Ḟ)
2.18776162394960e+05	(-2.36765030081909e+01dB,-9.53225122861835e+01Ḟ)
2.29086765276782e+05	(-3.63545167179333e+01dB,9.11822266172468e+01Ḟ)
2.39883291901954e+05	(-4.34883293342833e+01dB,9.04810598299100e+01Ḟ)
2.51188643150963e+05	(-4.73739078093943e+01dB,9.02718117633382e+01Ḟ)
2.63026799189543e+05	(-4.99878965507304e+01dB,9.01663705373068e+01Ḟ)
2.75422870333822e+05	(-5.18688628656501e+01dB,9.00992822450277e+01Ḟ)
2.88403150312666e+05	(-5.32295293361837e+01dB,9.00499291784494e+01Ḟ)
3.01995172040208e+05	(-5.41611663455871e+01dB,9.00094771511369e+01Ḟ)
3.16227766016844e+05	(-5.46925327579933e+01dB,8.99731205991025e+01Ḟ)
3.31131121482598e+05	(-5.48072186771283e+01dB,8.99374108727375e+01Ḟ)
3.46736850452539e+05	(-5.44404778589766e+01dB,8.98987645498861e+01Ḟ)
3.63078054770109e+05	(-5.34525745701059e+01dB,8.98515701395139e+01Ḟ)
3.80189396320569e+05	(-5.15447852378182e+01dB,8.97830077052908e+01Ḟ)
3.98107170553505e+05	(-4.79449806347105e+01dB,8.96483168226047e+01Ḟ)
4.16869383470344e+05	(-3.91690300569058e+01dB,8.90602918190304e+01Ḟ)
4.36515832240175e+05	(-3.89184599468396e+01dB,-8.91685674037542e+01Ḟ)
4.57088189614884e+05	(-4.86742859829162e+01dB,-8.98108614522235e+01Ḟ)
4.78630092322648e+05	(-5.27866882516530e+01dB,-8.99535942602821e+01Ḟ)
