Freq.	V(n028)
Step Information: Run=1  (Step: 1/100)
1.00000000000000e+00	(-1.38287318007241e-01dB,-5.58838750604358e-01Ḟ)
1.04712854805090e+00	(-1.38327176768085e-01dB,-5.85174219281034e-01Ḟ)
1.09647819614319e+00	(-1.38370880609930e-01dB,-6.12750575152858e-01Ḟ)
1.14815362149688e+00	(-1.38418800413918e-01dB,-6.41626260145810e-01Ḟ)
1.20226443461741e+00	(-1.38471342826631e-01dB,-6.71862464652269e-01Ḟ)
1.25892541179417e+00	(-1.38528953705859e-01dB,-7.03523256196889e-01Ḟ)
1.31825673855641e+00	(-1.38592121900411e-01dB,-7.36675714045118e-01Ḟ)
1.38038426460289e+00	(-1.38661383392477e-01dB,-7.71390070005280e-01Ḟ)
1.44543977074593e+00	(-1.38737325838754e-01dB,-8.07739855700313e-01Ḟ)
1.51356124843621e+00	(-1.38820593548922e-01dB,-8.45802056587219e-01Ḟ)
1.58489319246111e+00	(-1.38911892942592e-01dB,-8.85657273010292e-01Ḟ)
1.65958690743756e+00	(-1.39011998531207e-01dB,-9.27389888597114e-01Ḟ)
1.73780082874938e+00	(-1.39121759474357e-01dB,-9.71088246293092e-01Ḟ)
1.81970085860999e+00	(-1.39242106766936e-01dB,-1.01684483235904e+00Ḟ)
1.90546071796325e+00	(-1.39374061116173e-01dB,-1.06475646865719e+00Ḟ)
1.99526231496888e+00	(-1.39518741575247e-01dB,-1.11492451355720e+00Ḟ)
2.08929613085404e+00	(-1.39677375004171e-01dB,-1.16745507180446e+00Ḟ)
2.18776162394956e+00	(-1.39851306440659e-01dB,-1.22245921369750e+00Ḟ)
2.29086765276778e+00	(-1.40042010462314e-01dB,-1.28005320392904e+00Ḟ)
2.39883291901949e+00	(-1.40251103639638e-01dB,-1.34035874044769e+00Ḟ)
2.51188643150958e+00	(-1.40480358179326e-01dB,-1.40350320369589e+00Ḟ)
2.63026799189539e+00	(-1.40731716874792e-01dB,-1.46961991659103e+00Ḟ)
2.75422870333817e+00	(-1.41007309483727e-01dB,-1.53884841559935e+00Ḟ)
2.88403150312661e+00	(-1.41309470671077e-01dB,-1.61133473326285e+00Ḟ)
3.01995172040202e+00	(-1.41640759663254e-01dB,-1.68723169251751e+00Ḟ)
3.16227766016839e+00	(-1.42003981775857e-01dB,-1.76669921314117e+00Ḟ)
3.31131121482592e+00	(-1.42402211990068e-01dB,-1.84990463063961e+00Ḟ)
3.46736850452532e+00	(-1.42838820770483e-01dB,-1.93702302786932e+00Ḟ)
3.63078054770102e+00	(-1.43317502333569e-01dB,-2.02823757965874e+00Ḟ)
3.80189396320562e+00	(-1.43842305596074e-01dB,-2.12373991065303e+00Ḟ)
3.98107170553498e+00	(-1.44417668049571e-01dB,-2.22373046656743e+00Ḟ)
4.16869383470336e+00	(-1.45048452835813e-01dB,-2.32841889897199e+00Ḟ)
4.36515832240167e+00	(-1.45739989313920e-01dB,-2.43802446367280e+00Ḟ)
4.57088189614876e+00	(-1.46498117442347e-01dB,-2.55277643266156e+00Ḟ)
4.78630092322640e+00	(-1.47329236321772e-01dB,-2.67291451951938e+00Ḟ)
5.01187233627274e+00	(-1.48240357277153e-01dB,-2.79868931804439e+00Ḟ)
5.24807460249774e+00	(-1.49239161888282e-01dB,-2.93036275372997e+00Ḟ)
5.49540873857626e+00	(-1.50334065410390e-01dB,-3.06820854757748e+00Ḟ)
5.75439937337159e+00	(-1.51534286064522e-01dB,-3.21251269152306e+00Ḟ)
6.02559586074359e+00	(-1.52849920713669e-01dB,-3.36357393456002e+00Ḟ)
6.30957344480195e+00	(-1.54292027481540e-01dB,-3.52170427837075e+00Ḟ)
6.60693448007598e+00	(-1.55872715911590e-01dB,-3.68722948100737e+00Ḟ)
6.91830970918939e+00	(-1.57605245309951e-01dB,-3.86048956680557e+00Ḟ)
7.24435960074992e+00	(-1.59504131958447e-01dB,-4.04183934034626e+00Ḟ)
7.58577575029186e+00	(-1.61585265930541e-01dB,-4.23164890182420e+00Ḟ)
7.94328234724284e+00	(-1.63866038294333e-01dB,-4.43030416067406e+00Ḟ)
8.31763771102674e+00	(-1.66365479525149e-01dB,-4.63820734372398e+00Ḟ)
8.70963589956084e+00	(-1.69104410006434e-01dB,-4.85577749348106e+00Ḟ)
9.12010839355913e+00	(-1.72105603532057e-01dB,-5.08345095140091e+00Ḟ)
9.54992586021439e+00	(-1.75393964773073e-01dB,-5.32168182013318e+00Ḟ)
1.00000000000000e+01	(-1.78996721699698e-01dB,-5.57094239777317e+00Ḟ)
1.04712854805090e+01	(-1.82943633985395e-01dB,-5.83172357606111e+00Ḟ)
1.09647819614319e+01	(-1.87267218434261e-01dB,-6.10453519324818e+00Ḟ)
1.14815362149689e+01	(-1.92002992484443e-01dB,-6.38990633098584e+00Ḟ)
1.20226443461742e+01	(-1.97189736828614e-01dB,-6.68838554307325e+00Ḟ)
1.25892541179417e+01	(-2.02869778164495e-01dB,-7.00054100222125e+00Ḟ)
1.31825673855641e+01	(-2.09089293039072e-01dB,-7.32696054912391e+00Ḟ)
1.38038426460289e+01	(-2.15898633656711e-01dB,-7.66825162611450e+00Ḟ)
1.44543977074593e+01	(-2.23352676408914e-01dB,-8.02504107545137e+00Ḟ)
1.51356124843621e+01	(-2.31511193709023e-01dB,-8.39797477990593e+00Ḟ)
1.58489319246112e+01	(-2.40439249498109e-01dB,-8.78771712075844e+00Ḟ)
1.65958690743757e+01	(-2.50207618498819e-01dB,-9.19495022560972e+00Ḟ)
1.73780082874938e+01	(-2.60893228937224e-01dB,-9.62037297558338e+00Ḟ)
1.81970085860999e+01	(-2.72579628002591e-01dB,-1.00646997385938e+01Ḟ)
1.90546071796326e+01	(-2.85357468768199e-01dB,-1.05286587924270e+01Ḟ)
1.99526231496889e+01	(-2.99325016637107e-01dB,-1.10129903985191e+01Ḟ)
2.08929613085405e+01	(-3.14588672584157e-01dB,-1.15184444846189e+01Ḟ)
2.18776162394956e+01	(-3.31263509543653e-01dB,-1.20457778921126e+01Ḟ)
2.29086765276778e+01	(-3.49473817202752e-01dB,-1.25957511418538e+01Ḟ)
2.39883291901950e+01	(-3.69353649218222e-01dB,-1.31691246710645e+01Ḟ)
2.51188643150959e+01	(-3.91047365459040e-01dB,-1.37666544935022e+01Ḟ)
2.63026799189540e+01	(-4.14710160284277e-01dB,-1.43890872359168e+01Ḟ)
2.75422870333818e+01	(-4.40508566113378e-01dB,-1.50371545061683e+01Ḟ)
2.88403150312662e+01	(-4.68620919634029e-01dB,-1.57115665526211e+01Ḟ)
3.01995172040203e+01	(-4.99237775960215e-01dB,-1.64130051809674e+01Ḟ)
3.16227766016840e+01	(-5.32562253932531e-01dB,-1.71421159039129e+01Ḟ)
3.31131121482593e+01	(-5.68810293613312e-01dB,-1.78994993115917e+01Ḟ)
3.46736850452534e+01	(-6.08210804945245e-01dB,-1.86857016666081e+01Ḟ)
3.63078054770103e+01	(-6.51005684622294e-01dB,-1.95012047475903e+01Ḟ)
3.80189396320563e+01	(-6.97449676600611e-01dB,-2.03464149893529e+01Ḟ)
3.98107170553500e+01	(-7.47810050506004e-01dB,-2.12216519963362e+01Ḟ)
4.16869383470338e+01	(-8.02366071658571e-01dB,-2.21271365388311e+01Ḟ)
4.36515832240169e+01	(-8.61408236735745e-01dB,-2.30629781782444e+01Ḟ)
4.57088189614878e+01	(-9.25237250447352e-01dB,-2.40291627075942e+01Ḟ)
4.78630092322641e+01	(-9.94162721202244e-01dB,-2.50255396354466e+01Ḟ)
5.01187233627275e+01	(-1.06850155782466e+00dB,-2.60518099839736e+01Ḟ)
5.24807460249776e+01	(-1.14857605505231e+00dB,-2.71075147127284e+01Ḟ)
5.49540873857628e+01	(-1.23471166295590e+00dB,-2.81920241164496e+01Ḟ)
5.75439937337161e+01	(-1.32723444452436e+00dB,-2.93045285748474e+01Ḟ)
6.02559586074362e+01	(-1.42646823638250e+00dB,-3.04440310515877e+01Ḟ)
6.30957344480197e+01	(-1.53273153967786e+00dB,-3.16093417452724e+01Ḟ)
6.60693448007600e+01	(-1.64633418119699e+00dB,-3.27990752839572e+01Ḟ)
6.91830970918941e+01	(-1.76757379816811e+00dB,-3.40116508240386e+01Ḟ)
7.24435960074995e+01	(-1.89673221327751e+00dB,-3.52452953623586e+01Ḟ)
7.58577575029189e+01	(-2.03407177832425e+00dB,-3.64980504966295e+01Ḟ)
7.94328234724287e+01	(-2.17983177477353e+00dB,-3.77677827747048e+01Ḟ)
8.31763771102677e+01	(-2.33422496635034e+00dB,-3.90521976605578e+01Ḟ)
8.70963589956087e+01	(-2.49743440193168e+00dB,-4.03488570185918e+01Ḟ)
9.12010839355916e+01	(-2.66961056572799e+00dB,-4.16551998842709e+01Ḟ)
9.54992586021443e+01	(-2.85086896572736e+00dB,-4.29685661554908e+01Ḟ)
1.00000000000001e+02	(-3.04128824057201e+00dB,-4.42862227139044e+01Ḟ)
1.04712854805091e+02	(-3.24090884978322e+00dB,-4.56053913768490e+01Ḟ)
1.09647819614319e+02	(-3.44973239323880e+00dB,-4.69232779962449e+01Ḟ)
1.14815362149689e+02	(-3.66772158407079e+00dB,-4.82371019669738e+01Ḟ)
1.20226443461742e+02	(-3.89480087594709e+00dB,-4.95441253878221e+01Ḟ)
1.25892541179418e+02	(-4.13085772244491e+00dB,-5.08416811345578e+01Ḟ)
1.31825673855642e+02	(-4.37574442431010e+00dB,-5.21271991558620e+01Ḟ)
1.38038426460290e+02	(-4.62928050112136e+00dB,-5.33982303848186e+01Ḟ)
1.44543977074594e+02	(-4.89125550828437e+00dB,-5.46524677654915e+01Ḟ)
1.51356124843622e+02	(-5.16143220909073e+00dB,-5.58877640182902e+01Ḟ)
1.58489319246113e+02	(-5.43955000516516e+00dB,-5.71021459009937e+01Ḟ)
1.65958690743757e+02	(-5.72532852697018e+00dB,-5.82938248562592e+01Ḟ)
1.73780082874939e+02	(-6.01847128882295e+00dB,-5.94612040635126e+01Ḟ)
1.81970085861000e+02	(-6.31866931946835e+00dB,-6.06028820271248e+01Ḟ)
1.90546071796326e+02	(-6.62560468888578e+00dB,-6.17176529289343e+01Ḟ)
1.99526231496890e+02	(-6.93895386376530e+00dB,-6.28045040487385e+01Ḟ)
2.08929613085406e+02	(-7.25839083709757e+00dB,-6.38626106101044e+01Ḟ)
2.18776162394957e+02	(-7.58358999071727e+00dB,-6.48913284412964e+01Ḟ)
2.29086765276779e+02	(-7.91422866272137e+00dB,-6.58901848538567e+01Ḟ)
2.39883291901951e+02	(-8.24998940384690e+00dB,-6.68588681370863e+01Ḟ)
2.51188643150960e+02	(-8.59056191773708e+00dB,-6.77972160483862e+01Ḟ)
2.63026799189540e+02	(-8.93564468927294e+00dB,-6.87052036505415e+01Ḟ)
2.75422870333819e+02	(-9.28494631268810e+00dB,-6.95829308107400e+01Ḟ)
2.88403150312663e+02	(-9.63818653700678e+00dB,-7.04306096354812e+01Ḟ)
3.01995172040204e+02	(-9.99509705054233e+00dB,-7.12485520730767e+01Ḟ)
3.16227766016841e+02	(-1.03554220289181e+01dB,-7.20371578733386e+01Ḟ)
3.31131121482594e+02	(-1.07189184725194e+01dB,-7.27969030538827e+01Ḟ)
3.46736850452535e+02	(-1.10853563596597e+01dB,-7.35283289854468e+01Ḟ)
3.63078054770105e+02	(-1.14545186412762e+01dB,-7.42320321754250e+01Ḟ)
3.80189396320565e+02	(-1.18262011018379e+01dB,-7.49086547999148e+01Ḟ)
3.98107170553501e+02	(-1.22002121095607e+01dB,-7.55588760099798e+01Ḟ)
4.16869383470339e+02	(-1.25763722771240e+01dB,-7.61834040175249e+01Ḟ)
4.36515832240170e+02	(-1.29545140520056e+01dB,-7.67829689498276e+01Ḟ)
4.57088189614879e+02	(-1.33344812534170e+01dB,-7.73583164490512e+01Ḟ)
4.78630092322643e+02	(-1.37161285706917e+01dB,-7.79102019835566e+01Ḟ)
5.01187233627277e+02	(-1.40993210359395e+01dB,-7.84393858310641e+01Ḟ)
5.24807460249778e+02	(-1.44839334818580e+01dB,-7.89466286893168e+01Ḟ)
5.49540873857630e+02	(-1.48698499938199e+01dB,-7.94326878673943e+01Ḟ)
5.75439937337163e+02	(-1.52569633637540e+01dB,-7.98983140098954e+01Ḟ)
6.02559586074364e+02	(-1.56451745519059e+01dB,-8.03442483064850e+01Ḟ)
6.30957344480200e+02	(-1.60343921613011e+01dB,-8.07712201405150e+01Ḟ)
6.60693448007603e+02	(-1.64245319286419e+01dB,-8.11799451323190e+01Ḟ)
6.91830970918944e+02	(-1.68155162344223e+01dB,-8.15711235351564e+01Ḟ)
7.24435960074998e+02	(-1.72072736342502e+01dB,-8.19454389444608e+01Ḟ)
7.58577575029192e+02	(-1.75997384126885e+01dB,-8.23035572838994e+01Ḟ)
7.94328234724290e+02	(-1.79928501603758e+01dB,-8.26461260346796e+01Ḟ)
8.31763771102680e+02	(-1.83865533747244e+01dB,-8.29737736774414e+01Ḟ)
8.70963589956090e+02	(-1.87807970841301e+01dB,-8.32871093189128e+01Ḟ)
9.12010839355920e+02	(-1.91755344953320e+01dB,-8.35867224782205e+01Ḟ)
9.54992586021446e+02	(-1.95707226633343e+01dB,-8.38731830103186e+01Ḟ)
1.00000000000001e+03	(-1.99663221831278e+01dB,-8.41470411463995e+01Ḟ)
1.04712854805091e+03	(-2.03622969023214e+01dB,-8.44088276333794e+01Ḟ)
1.09647819614320e+03	(-2.07586136537054e+01dB,-8.46590539565978e+01Ḟ)
1.14815362149690e+03	(-2.11552420067073e+01dB,-8.48982126317362e+01Ḟ)
1.20226443461743e+03	(-2.15521540366721e+01dB,-8.51267775536654e+01Ḟ)
1.25892541179418e+03	(-2.19493241108810e+01dB,-8.53452043914547e+01Ḟ)
1.31825673855642e+03	(-2.23467286902300e+01dB,-8.55539310201586e+01Ḟ)
1.38038426460290e+03	(-2.27443461455021e+01dB,-8.57533779812264e+01Ḟ)
1.44543977074594e+03	(-2.31421565871935e+01dB,-8.59439489644796e+01Ḟ)
1.51356124843623e+03	(-2.35401417078842e+01dB,-8.61260313055767e+01Ḟ)
1.58489319246113e+03	(-2.39382846361792e+01dB,-8.62999964937501e+01Ḟ)
1.65958690743758e+03	(-2.43365698012881e+01dB,-8.64662006853616e+01Ḟ)
1.73780082874940e+03	(-2.47349828073470e+01dB,-8.66249852194941e+01Ḟ)
1.81970085861001e+03	(-2.51335103166310e+01dB,-8.67766771323887e+01Ḟ)
1.90546071796327e+03	(-2.55321399408449e+01dB,-8.69215896680466e+01Ḟ)
1.99526231496890e+03	(-2.59308601397178e+01dB,-8.70600227827726e+01Ḟ)
2.08929613085406e+03	(-2.63296601261664e+01dB,-8.71922636418230e+01Ḟ)
2.18776162394958e+03	(-2.67285297773252e+01dB,-8.73185871066632e+01Ḟ)
2.29086765276780e+03	(-2.71274595507756e+01dB,-8.74392562116369e+01Ḟ)
2.39883291901952e+03	(-2.75264404053344e+01dB,-8.75545226290992e+01Ḟ)
2.51188643150961e+03	(-2.79254637257898e+01dB,-8.76646271222884e+01Ḟ)
2.63026799189541e+03	(-2.83245212509950e+01dB,-8.77697999853978e+01Ḟ)
2.75422870333820e+03	(-2.87236050047515e+01dB,-8.78702614704688e+01Ḟ)
2.88403150312664e+03	(-2.91227072289274e+01dB,-8.79662222008652e+01Ḟ)
3.01995172040205e+03	(-2.95218203182728e+01dB,-8.80578835712020e+01Ḟ)
3.16227766016842e+03	(-2.99209367564000e+01dB,-8.81454381337021e+01Ḟ)
3.31131121482595e+03	(-3.03200490524046e+01dB,-8.82290699710354e+01Ḟ)
3.46736850452536e+03	(-3.07191496776023e+01dB,-8.83089550557619e+01Ḟ)
3.63078054770106e+03	(-3.11182310018571e+01dB,-8.83852615965598e+01Ḟ)
3.80189396320566e+03	(-3.15172852289675e+01dB,-8.84581503714622e+01Ḟ)
3.98107170553503e+03	(-3.19163043305666e+01dB,-8.85277750483662e+01Ḟ)
4.16869383470341e+03	(-3.23152799779805e+01dB,-8.85942824931065e+01Ḟ)
4.36515832240172e+03	(-3.27142034714633e+01dB,-8.86578130654089e+01Ḟ)
4.57088189614881e+03	(-3.31130656662090e+01dB,-8.87185009030571e+01Ḟ)
4.78630092322645e+03	(-3.35118568945051e+01dB,-8.87764741946196e+01Ḟ)
5.01187233627279e+03	(-3.39105668833612e+01dB,-8.88318554410899e+01Ḟ)
5.24807460249780e+03	(-3.43091846669022e+01dB,-8.88847617068024e+01Ḟ)
5.49540873857632e+03	(-3.47076984927692e+01dB,-8.89353048599851e+01Ḟ)
5.75439937337165e+03	(-3.51060957217157e+01dB,-8.89835918033133e+01Ḟ)
6.02559586074366e+03	(-3.55043627195249e+01dB,-8.90297246948250e+01Ḟ)
6.30957344480202e+03	(-3.59024847403040e+01dB,-8.90738011595552e+01Ḟ)
6.60693448007605e+03	(-3.63004458001316e+01dB,-8.91159144922425e+01Ḟ)
6.91830970918946e+03	(-3.66982285399440e+01dB,-8.91561538514551e+01Ḟ)
7.24435960075000e+03	(-3.70958140764497e+01dB,-8.91946044454751e+01Ḟ)
7.58577575029195e+03	(-3.74931818397458e+01dB,-8.92313477102761e+01Ḟ)
7.94328234724293e+03	(-3.78903093961856e+01dB,-8.92664614799166e+01Ḟ)
8.31763771102683e+03	(-3.82871722549086e+01dB,-8.93000201496690e+01Ḟ)
8.70963589956093e+03	(-3.86837436562845e+01dB,-8.93320948321904e+01Ḟ)
9.12010839355923e+03	(-3.90799943403504e+01dB,-8.93627535070376e+01Ḟ)
9.54992586021450e+03	(-3.94758922931220e+01dB,-8.93920611638179e+01Ḟ)
1.00000000000001e+04	(-3.98714024684424e+01dB,-8.94200799392593e+01Ḟ)
1.04712854805092e+04	(-4.02664864827846e+01dB,-8.94468692484785e+01Ḟ)
1.09647819614320e+04	(-4.06611022801510e+01dB,-8.94724859107134e+01Ḟ)
1.14815362149690e+04	(-4.10552037639001e+01dB,-8.94969842697848e+01Ḟ)
1.20226443461743e+04	(-4.14487403919869e+01dB,-8.95204163095410e+01Ḟ)
1.25892541179419e+04	(-4.18416567317087e+01dB,-8.95428317645363e+01Ḟ)
1.31825673855643e+04	(-4.22338919696085e+01dB,-8.95642782261885e+01Ḟ)
1.38038426460291e+04	(-4.26253793716848e+01dB,-8.95848012446550e+01Ḟ)
1.44543977074595e+04	(-4.30160456884967e+01dB,-8.96044444266658e+01Ḟ)
1.51356124843623e+04	(-4.34058104991029e+01dB,-8.96232495295487e+01Ḟ)
1.58489319246114e+04	(-4.37945854870475e+01dB,-8.96412565516799e+01Ḟ)
1.65958690743759e+04	(-4.41822736407649e+01dB,-8.96585038195962e+01Ḟ)
1.73780082874940e+04	(-4.45687683698245e+01dB,-8.96750280720059e+01Ḟ)
1.81970085861001e+04	(-4.49539525273336e+01dB,-8.96908645409391e+01Ḟ)
1.90546071796328e+04	(-4.53376973275531e+01dB,-8.97060470302878e+01Ḟ)
1.99526231496891e+04	(-4.57198611463205e+01dB,-8.97206079919918e+01Ḟ)
2.08929613085407e+04	(-4.61002881901775e+01dB,-8.97345786001442e+01Ḟ)
2.18776162394959e+04	(-4.64788070181265e+01dB,-8.97479888233032e+01Ḟ)
2.29086765276781e+04	(-4.68552288976361e+01dB,-8.97608674953225e+01Ḟ)
2.39883291901953e+04	(-4.72293459738090e+01dB,-8.97732423850397e+01Ḟ)
2.51188643150962e+04	(-4.76009292274426e+01dB,-8.97851402651981e+01Ḟ)
2.63026799189542e+04	(-4.79697261939386e+01dB,-8.97965869810230e+01Ḟ)
2.75422870333821e+04	(-4.83354584105394e+01dB,-8.98076075189317e+01Ḟ)
2.88403150312665e+04	(-4.86978185540161e+01dB,-8.98182260759267e+01Ḟ)
3.01995172040207e+04	(-4.90564672245082e+01dB,-8.98284661303130e+01Ḟ)
3.16227766016843e+04	(-4.94110293234619e+01dB,-8.98383505144935e+01Ḟ)
3.31131121482597e+04	(-4.97610899642102e+01dB,-8.98479014907429e+01Ḟ)
3.46736850452537e+04	(-5.01061898422608e+01dB,-8.98571408310391e+01Ḟ)
3.63078054770107e+04	(-5.04458199782728e+01dB,-8.98660899022688e+01Ḟ)
3.80189396320568e+04	(-5.07794157292982e+01dB,-8.98747697584211e+01Ḟ)
3.98107170553504e+04	(-5.11063499422312e+01dB,-8.98832012417688e+01Ḟ)
4.16869383470342e+04	(-5.14259250963098e+01dB,-8.98914050955413e+01Ḟ)
4.36515832240173e+04	(-5.17373642473410e+01dB,-8.98994020912485e+01Ḟ)
4.57088189614883e+04	(-5.20398005428667e+01dB,-8.99072131746830e+01Ḟ)
4.78630092322647e+04	(-5.23322650217947e+01dB,-8.99148596357854e+01Ḟ)
5.01187233627281e+04	(-5.26136723399923e+01dB,-8.99223633091073e+01Ḟ)
5.24807460249782e+04	(-5.28828039693161e+01dB,-8.99297468137182e+01Ḟ)
5.49540873857634e+04	(-5.31382882935877e+01dB,-8.99370338442940e+01Ḟ)
5.75439937337167e+04	(-5.33785768598025e+01dB,-8.99442495291475e+01Ḟ)
6.02559586074368e+04	(-5.36019158200974e+01dB,-8.99514208766112e+01Ḟ)
6.30957344480204e+04	(-5.38063112959123e+01dB,-8.99585773392511e+01Ḟ)
6.60693448007608e+04	(-5.39894869750065e+01dB,-8.99657515370527e+01Ḟ)
6.91830970918949e+04	(-5.41488316612225e+01dB,-8.99729801978953e+01Ḟ)
7.24435960075003e+04	(-5.42813336540745e+01dB,-8.99803053993285e+01Ḟ)
7.58577575029197e+04	(-5.43834976117380e+01dB,-8.99877762349115e+01Ḟ)
7.94328234724296e+04	(-5.44512377404176e+01dB,-8.99954510895753e+01Ḟ)
8.31763771102686e+04	(-5.44797384163236e+01dB,-9.00034008062178e+01Ḟ)
8.70963589956096e+04	(-5.44632691111666e+01dB,-9.00117131860055e+01Ḟ)
9.12010839355926e+04	(-5.43949337625905e+01dB,-9.00204995355455e+01Ḟ)
9.54992586021453e+04	(-5.42663237160707e+01dB,-9.00299044467659e+01Ḟ)
1.00000000000002e+05	(-5.40670247163811e+01dB,-9.00401208527724e+01Ḟ)
1.04712854805092e+05	(-5.37838956070406e+01dB,-9.00514140278811e+01Ḟ)
1.09647819614321e+05	(-5.33999759776807e+01dB,-9.00641614404758e+01Ḟ)
1.14815362149690e+05	(-5.28927627230108e+01dB,-9.00789222302031e+01Ḟ)
1.20226443461744e+05	(-5.22313529337566e+01dB,-9.00965657049795e+01Ḟ)
1.25892541179419e+05	(-5.13714085023532e+01dB,-9.01185271221341e+01Ḟ)
1.31825673855643e+05	(-5.02455626545854e+01dB,-9.01473671730861e+01Ḟ)
1.38038426460291e+05	(-4.87431553743174e+01dB,-9.01881601692202e+01Ḟ)
1.44543977074595e+05	(-4.66607628983063e+01dB,-9.02526135785039e+01Ḟ)
1.51356124843624e+05	(-4.35513871302430e+01dB,-9.03752517403831e+01Ḟ)
1.58489319246114e+05	(-3.80339257238987e+01dB,-9.07222004998586e+01Ḟ)
1.65958690743759e+05	(-1.18653394623988e+01dB,-1.04844225690953e+02Ḟ)
1.73780082874941e+05	(-3.76318615283167e+01dB,9.07374842327894e+01Ḟ)
1.81970085861002e+05	(-4.39923599453626e+01dB,9.03363102027695e+01Ḟ)
1.90546071796328e+05	(-4.76282365025804e+01dB,9.02024373718378e+01Ḟ)
1.99526231496892e+05	(-5.01113692204770e+01dB,9.01325258933964e+01Ḟ)
2.08929613085408e+05	(-5.19082796827103e+01dB,9.00873669753339e+01Ḟ)
2.18776162394960e+05	(-5.32096760196501e+01dB,9.00539417634388e+01Ḟ)
2.29086765276782e+05	(-5.40990657320608e+01dB,9.00265003286390e+01Ḟ)
2.39883291901954e+05	(-5.46036011479914e+01dB,9.00018536472221e+01Ḟ)
2.51188643150963e+05	(-5.47096363571386e+01dB,8.99776956617716e+01Ḟ)
2.63026799189543e+05	(-5.43607089658077e+01dB,8.99516584028937e+01Ḟ)
2.75422870333822e+05	(-5.34362443058208e+01dB,8.99201600231567e+01Ḟ)
2.88403150312666e+05	(-5.16862965586527e+01dB,8.98754758583839e+01Ḟ)
3.01995172040208e+05	(-4.85055895129532e+01dB,8.97932706307352e+01Ḟ)
3.16227766016844e+05	(-4.16445728172197e+01dB,8.95200198902875e+01Ḟ)
3.31131121482598e+05	(-3.27801123344603e+01dB,-8.87215352036724e+01Ḟ)
3.46736850452539e+05	(-4.65821711047339e+01dB,-8.97778971974055e+01Ḟ)
3.63078054770109e+05	(-5.13687274628922e+01dB,-8.99106220437325e+01Ḟ)
3.80189396320569e+05	(-5.38354050875876e+01dB,-8.99723077405839e+01Ḟ)
3.98107170553505e+05	(-5.48746118905032e+01dB,-9.00163248836490e+01Ḟ)
4.16869383470344e+05	(-5.45911334530493e+01dB,-9.00591172733091e+01Ḟ)
4.36515832240175e+05	(-5.25820176699590e+01dB,-9.01177601640037e+01Ḟ)
4.57088189614884e+05	(-4.70450393880627e+01dB,-9.02647340428239e+01Ḟ)
4.78630092322648e+05	(-3.19387673701113e+01dB,9.14162064198460e+01Ḟ)
