Freq.	V(n028)
1.00000000000000e+01	(-2.79598825045897e-03dB,-1.13723632187822e-01°)
1.00577306300174e+01	(-2.79618450049053e-03dB,-1.14380164159200e-01°)
1.01157945425990e+01	(-2.79638302359945e-03dB,-1.15040486300528e-01°)
1.01741936618061e+01	(-2.79658384512018e-03dB,-1.15704620493076e-01°)
1.02329299228075e+01	(-2.79678699211098e-03dB,-1.16372588742853e-01°)
1.02920052719443e+01	(-2.79699249119697e-03dB,-1.17044413184278e-01°)
1.03514216667934e+01	(-2.79720037035766e-03dB,-1.17720116077780e-01°)
1.04111810762334e+01	(-2.79741065627897e-03dB,-1.18399719814209e-01°)
1.04712854805090e+01	(-2.79762337737351e-03dB,-1.19083246912327e-01°)
1.05317368712972e+01	(-2.79783856149637e-03dB,-1.19770720021863e-01°)
1.05925372517729e+01	(-2.79805623718653e-03dB,-1.20462161922626e-01°)
1.06536886366756e+01	(-2.79827643410393e-03dB,-1.21157595525404e-01°)
1.07151930523761e+01	(-2.79849917975059e-03dB,-1.21857043875357e-01°)
1.07770525369432e+01	(-2.79872450543307e-03dB,-1.22560530147864e-01°)
1.08392691402120e+01	(-2.79895244036564e-03dB,-1.23268077653878e-01°)
1.09018449238513e+01	(-2.79918301413494e-03dB,-1.23979709839133e-01°)
1.09647819614319e+01	(-2.79941625782856e-03dB,-1.24695450283559e-01°)
1.10280823384955e+01	(-2.79965220244249e-03dB,-1.25415322703733e-01°)
1.10917481526240e+01	(-2.79989087928717e-03dB,-1.26139350953059e-01°)
1.11557815135085e+01	(-2.80013231950330e-03dB,-1.26867559023187e-01°)
1.12201845430196e+01	(-2.80037655606918e-03dB,-1.27599971042817e-01°)
1.12849593752776e+01	(-2.80062362052199e-03dB,-1.28336611281823e-01°)
1.13501081567232e+01	(-2.80087354574841e-03dB,-1.29077504148976e-01°)
1.14156330461885e+01	(-2.80112636512905e-03dB,-1.29822674194120e-01°)
1.14815362149688e+01	(-2.80138211148985e-03dB,-1.30572146109488e-01°)
1.15478198468946e+01	(-2.80164081967670e-03dB,-1.31325944728438e-01°)
1.16144861384034e+01	(-2.80190252340205e-03dB,-1.32084095028909e-01°)
1.16815372986133e+01	(-2.80216725755523e-03dB,-1.32846622132586e-01°)
1.17489755493953e+01	(-2.80243505674003e-03dB,-1.33613551306891e-01°)
1.18168031254479e+01	(-2.80270595733904e-03dB,-1.34384907963109e-01°)
1.18850222743702e+01	(-2.80297999538471e-03dB,-1.35160717660795e-01°)
1.19536352567372e+01	(-2.80325720600466e-03dB,-1.35941006107861e-01°)
1.20226443461742e+01	(-2.80353762624324e-03dB,-1.36725799159225e-01°)
1.20920518294321e+01	(-2.80382129373518e-03dB,-1.37515122818809e-01°)
1.21618600064637e+01	(-2.80410824578339e-03dB,-1.38309003241578e-01°)
1.22320711904993e+01	(-2.80439852135381e-03dB,-1.39107466732455e-01°)
1.23026877081238e+01	(-2.80469215716673e-03dB,-1.39910539750112e-01°)
1.23737118993535e+01	(-2.80498919388297e-03dB,-1.40718248903509e-01°)
1.24451461177139e+01	(-2.80528966946819e-03dB,-1.41530620957269e-01°)
1.25169927303173e+01	(-2.80559362457744e-03dB,-1.42347682829110e-01°)
1.25892541179417e+01	(-2.80590109967385e-03dB,-1.43169461592417e-01°)
1.26619326751095e+01	(-2.80621213483276e-03dB,-1.43995984477782e-01°)
1.27350308101666e+01	(-2.80652677158225e-03dB,-1.44827278871904e-01°)
1.28085509453628e+01	(-2.80684505154208e-03dB,-1.45663372320121e-01°)
1.28824955169314e+01	(-2.80716701725420e-03dB,-1.46504292526422e-01°)
1.29568669751702e+01	(-2.80749271107247e-03dB,-1.47350067355042e-01°)
1.30316677845230e+01	(-2.80782217588517e-03dB,-1.48200724831067e-01°)
1.31069004236608e+01	(-2.80815545606227e-03dB,-1.49056293140775e-01°)
1.31825673855641e+01	(-2.80849259524258e-03dB,-1.49916800634023e-01°)
1.32586711776056e+01	(-2.80883363846747e-03dB,-1.50782275823440e-01°)
1.33352143216333e+01	(-2.80917863060279e-03dB,-1.51652747387164e-01°)
1.34121993540537e+01	(-2.80952761758996e-03dB,-1.52528244168026e-01°)
1.34896288259166e+01	(-2.80988064556432e-03dB,-1.53408795175819e-01°)
1.35675053029987e+01	(-2.81023776136056e-03dB,-1.54294429587860e-01°)
1.36458313658893e+01	(-2.81059901232852e-03dB,-1.55185176749411e-01°)
1.37246096100757e+01	(-2.81096444641710e-03dB,-1.56081066175421e-01°)
1.38038426460289e+01	(-2.81133411188871e-03dB,-1.56982127551477e-01°)
1.38835330992905e+01	(-2.81170805771093e-03dB,-1.57888390734182e-01°)
1.39636836105594e+01	(-2.81208633385747e-03dB,-1.58799885752091e-01°)
1.40442968357795e+01	(-2.81246899045929e-03dB,-1.59716642807847e-01°)
1.41253754462276e+01	(-2.81285607752488e-03dB,-1.60638692278407e-01°)
1.42069221286019e+01	(-2.81324764722543e-03dB,-1.61566064715271e-01°)
1.42889395851111e+01	(-2.81364375091031e-03dB,-1.62498790847177e-01°)
1.43714305335640e+01	(-2.81404444069479e-03dB,-1.63436901580180e-01°)
1.44543977074593e+01	(-2.81444977078554e-03dB,-1.64380427997600e-01°)
1.45378438560767e+01	(-2.81485979418631e-03dB,-1.65329401363532e-01°)
1.46217717445672e+01	(-2.81527456550894e-03dB,-1.66283853121755e-01°)
1.47061841540457e+01	(-2.81569413957557e-03dB,-1.67243814898055e-01°)
1.47910838816821e+01	(-2.81611857177268e-03dB,-1.68209318500565e-01°)
1.48764737407951e+01	(-2.81654791889609e-03dB,-1.69180395920542e-01°)
1.49623565609444e+01	(-2.81698223778122e-03dB,-1.70157079334498e-01°)
1.50487351880252e+01	(-2.81742158527023e-03dB,-1.71139401104816e-01°)
1.51356124843621e+01	(-2.81786602049443e-03dB,-1.72127393779924e-01°)
1.52229913288043e+01	(-2.81831560170054e-03dB,-1.73121090096936e-01°)
1.53108746168204e+01	(-2.81877038880221e-03dB,-1.74120522981383e-01°)
1.53992652605950e+01	(-2.81923044252438e-03dB,-1.75125725548533e-01°)
1.54881661891249e+01	(-2.81969582304218e-03dB,-1.76136731106099e-01°)
1.55775803483161e+01	(-2.82016659209924e-03dB,-1.77153573153036e-01°)
1.56675107010816e+01	(-2.82064281262959e-03dB,-1.78176285381522e-01°)
1.57579602274393e+01	(-2.82112454728852e-03dB,-1.79204901678893e-01°)
1.58489319246112e+01	(-2.82161186017538e-03dB,-1.80239456127505e-01°)
1.59404288071222e+01	(-2.82210481600985e-03dB,-1.81279983006628e-01°)
1.60324539069005e+01	(-2.82260348031224e-03dB,-1.82326516793286e-01°)
1.61250102733775e+01	(-2.82310791801932e-03dB,-1.83379092164471e-01°)
1.62181009735894e+01	(-2.82361819728398e-03dB,-1.84437743995543e-01°)
1.63117290922785e+01	(-2.82413438499739e-03dB,-1.85502507364796e-01°)
1.64058977319955e+01	(-2.82465654970510e-03dB,-1.86573417552171e-01°)
1.65006100132024e+01	(-2.82518476119516e-03dB,-1.87650510040943e-01°)
1.65958690743757e+01	(-2.82571908860548e-03dB,-1.88733820520323e-01°)
1.66916780721107e+01	(-2.82625960346436e-03dB,-1.89823384884421e-01°)
1.67880401812257e+01	(-2.82680637679952e-03dB,-1.90919239235290e-01°)
1.68849585948676e+01	(-2.82735948131811e-03dB,-1.92021419882936e-01°)
1.69824365246175e+01	(-2.82791899071128e-03dB,-1.93129963346606e-01°)
1.70804772005972e+01	(-2.82848497896151e-03dB,-1.94244906357273e-01°)
1.71790838715760e+01	(-2.82905752068028e-03dB,-1.95366285857335e-01°)
1.72782598050787e+01	(-2.82963669236594e-03dB,-1.96494139002133e-01°)
1.73780082874938e+01	(-2.83022257020817e-03dB,-1.97628503162373e-01°)
1.74783326241823e+01	(-2.83081523220832e-03dB,-1.98769415923499e-01°)
1.75792361395870e+01	(-2.83141475665616e-03dB,-1.99916915088545e-01°)
1.76807221773433e+01	(-2.83202122327402e-03dB,-2.01071038678290e-01°)
1.77827941003893e+01	(-2.83263471237175e-03dB,-2.02231824933342e-01°)
1.78854552910778e+01	(-2.83325530532416e-03dB,-2.03399312314600e-01°)
1.79887091512880e+01	(-2.83388308458653e-03dB,-2.04573539505274e-01°)
1.80925591025383e+01	(-2.83451813248782e-03dB,-2.05754545412175e-01°)
1.81970085860999e+01	(-2.83516053439371e-03dB,-2.06942369165625e-01°)
1.83020610631107e+01	(-2.83581037455575e-03dB,-2.08137050122940e-01°)
1.84077200146897e+01	(-2.83646773947029e-03dB,-2.09338627867905e-01°)
1.85139889420528e+01	(-2.83713271571763e-03dB,-2.10547142213260e-01°)
1.86208713666288e+01	(-2.83780539254535e-03dB,-2.11762633200541e-01°)
1.87283708301756e+01	(-2.83848585849979e-03dB,-2.12985141103545e-01°)
1.88364908948981e+01	(-2.83917420361868e-03dB,-2.14214706428030e-01°)
1.89452351435660e+01	(-2.83987051914076e-03dB,-2.15451369913661e-01°)
1.90546071796326e+01	(-2.84057489748654e-03dB,-2.16695172534958e-01°)
1.91646106273540e+01	(-2.84128743214346e-03dB,-2.17946155503141e-01°)
1.92752491319095e+01	(-2.84200821787040e-03dB,-2.19204360266958e-01°)
1.93865263595222e+01	(-2.84273734945911e-03dB,-2.20469828515213e-01°)
1.94984459975806e+01	(-2.84347492339049e-03dB,-2.21742602176768e-01°)
1.96110117547606e+01	(-2.84422103844422e-03dB,-2.23022723422054e-01°)
1.97242273611487e+01	(-2.84497579293126e-03dB,-2.24310234665478e-01°)
1.98380965683652e+01	(-2.84573928647160e-03dB,-2.25605178566451e-01°)
1.99526231496889e+01	(-2.84651162116062e-03dB,-2.26907598029656e-01°)
2.00678109001820e+01	(-2.84729289913230e-03dB,-2.28217536208195e-01°)
2.01836636368157e+01	(-2.84808322297218e-03dB,-2.29535036504475e-01°)
2.03001851985970e+01	(-2.84888269850318e-03dB,-2.30860142570326e-01°)
2.04173794466954e+01	(-2.84969143203158e-03dB,-2.32192898309929e-01°)
2.05352502645716e+01	(-2.85050952955216e-03dB,-2.33533347881720e-01°)
2.06538015581054e+01	(-2.85133709969614e-03dB,-2.34881535698214e-01°)
2.07730372557258e+01	(-2.85217425294306e-03dB,-2.36237506427865e-01°)
2.08929613085405e+01	(-2.85302110006386e-03dB,-2.37601304997456e-01°)
2.10135776904676e+01	(-2.85387775275563e-03dB,-2.38972976593475e-01°)
2.11348903983666e+01	(-2.85474432445959e-03dB,-2.40352566662544e-01°)
2.12569034521712e+01	(-2.85562093101997e-03dB,-2.41740120913280e-01°)
2.13796208950225e+01	(-2.85650768723351e-03dB,-2.43135685319365e-01°)
2.15030467934027e+01	(-2.85740471229867e-03dB,-2.44539306118071e-01°)
2.16271852372704e+01	(-2.85831212370176e-03dB,-2.45951029815191e-01°)
2.17520403401954e+01	(-2.85923004283697e-03dB,-2.47370903183586e-01°)
2.18776162394957e+01	(-2.86015858972103e-03dB,-2.48798973267392e-01°)
2.20039170963742e+01	(-2.86109788952780e-03dB,-2.50235287380506e-01°)
2.21309470960565e+01	(-2.86204806522602e-03dB,-2.51679893111599e-01°)
2.22587104479302e+01	(-2.86300924330163e-03dB,-2.53132838322959e-01°)
2.23872113856836e+01	(-2.86398155120725e-03dB,-2.54594171153295e-01°)
2.25164541674464e+01	(-2.86496511722229e-03dB,-2.56063940019510e-01°)
2.26464430759308e+01	(-2.86596007219512e-03dB,-2.57542193617359e-01°)
2.27771824185734e+01	(-2.86696654863147e-03dB,-2.59028980923597e-01°)
2.29086765276779e+01	(-2.86798467842945e-03dB,-2.60524351198590e-01°)
2.30409297605586e+01	(-2.86901459783785e-03dB,-2.62028353985666e-01°)
2.31739464996850e+01	(-2.87005644302548e-03dB,-2.63541039114860e-01°)
2.33077311528266e+01	(-2.87111035194588e-03dB,-2.65062456703654e-01°)
2.34422881531994e+01	(-2.87217646435466e-03dB,-2.66592657158624e-01°)
2.35776219596127e+01	(-2.87325492090369e-03dB,-2.68131691177715e-01°)
2.37137370566168e+01	(-2.87434586558267e-03dB,-2.69679609750442e-01°)
2.38506379546513e+01	(-2.87544944249330e-03dB,-2.71236464161390e-01°)
2.39883291901951e+01	(-2.87656579819052e-03dB,-2.72802305990780e-01°)
2.41268153259165e+01	(-2.87769507991043e-03dB,-2.74377187116867e-01°)
2.42661009508244e+01	(-2.87883743805428e-03dB,-2.75961159716748e-01°)
2.44061906804200e+01	(-2.87999302357717e-03dB,-2.77554276269032e-01°)
2.45470891568505e+01	(-2.88116199029739e-03dB,-2.79156589554541e-01°)
2.46888010490623e+01	(-2.88234449203051e-03dB,-2.80768152659879e-01°)
2.48313310529559e+01	(-2.88354068686947e-03dB,-2.82389018976439e-01°)
2.49746838915417e+01	(-2.88475073186845e-03dB,-2.84019242205310e-01°)
2.51188643150960e+01	(-2.88597478861274e-03dB,-2.85658876356082e-01°)
2.52638771013192e+01	(-2.88721301879195e-03dB,-2.87307975750815e-01°)
2.54097270554933e+01	(-2.88846558664062e-03dB,-2.88966595024777e-01°)
2.55564190106416e+01	(-2.88973265816451e-03dB,-2.90634789128578e-01°)
2.57039578276889e+01	(-2.89101440158249e-03dB,-2.92312613329772e-01°)
2.58523483956221e+01	(-2.89231098615830e-03dB,-2.94000123215135e-01°)
2.60015956316530e+01	(-2.89362258445304e-03dB,-2.95697374691786e-01°)
2.61517044813802e+01	(-2.89494936981706e-03dB,-2.97404423989856e-01°)
2.63026799189541e+01	(-2.89629151792762e-03dB,-2.99121327663838e-01°)
2.64545269472407e+01	(-2.89764920723267e-03dB,-3.00848142594208e-01°)
2.66072505979884e+01	(-2.89902261731862e-03dB,-3.02584925990077e-01°)
2.67608559319936e+01	(-2.90041193054352e-03dB,-3.04331735390447e-01°)
2.69153480392694e+01	(-2.90181733049171e-03dB,-3.06088628666582e-01°)
2.70707320392138e+01	(-2.90323900370146e-03dB,-3.07855664023381e-01°)
2.72270130807794e+01	(-2.90467713881421e-03dB,-3.09632900001562e-01°)
2.73841963426439e+01	(-2.90613192601315e-03dB,-3.11420395480004e-01°)
2.75422870333819e+01	(-2.90760355838429e-03dB,-3.13218209676974e-01°)
2.77012903916376e+01	(-2.90909223131554e-03dB,-3.15026402152361e-01°)
2.78612116862980e+01	(-2.91059814148092e-03dB,-3.16845032810188e-01°)
2.80220562166677e+01	(-2.91212148868402e-03dB,-3.18674161899625e-01°)
2.81838293126448e+01	(-2.91366247505348e-03dB,-3.20513850017731e-01°)
2.83465363348970e+01	(-2.91522130485490e-03dB,-3.22364158111026e-01°)
2.85101826750394e+01	(-2.91679818406733e-03dB,-3.24225147478112e-01°)
2.86747737558135e+01	(-2.91839332215734e-03dB,-3.26096879770732e-01°)
2.88403150312664e+01	(-2.92000693053935e-03dB,-3.27979416996597e-01°)
2.90068119869318e+01	(-2.92163922266352e-03dB,-3.29872821521232e-01°)
2.91742701400120e+01	(-2.92329041570959e-03dB,-3.31777156069717e-01°)
2.93426950395600e+01	(-2.92496072800749e-03dB,-3.33692483729340e-01°)
2.95120922666642e+01	(-2.92665038076400e-03dB,-3.35618867951409e-01°)
2.96824674346327e+01	(-2.92835959823648e-03dB,-3.37556372552970e-01°)
2.98538261891799e+01	(-2.93008860636876e-03dB,-3.39505061719751e-01°)
3.00261742086130e+01	(-2.93183763514498e-03dB,-3.41465000007195e-01°)
3.01995172040205e+01	(-2.93360691624932e-03dB,-3.43436252343576e-01°)
3.03738609194614e+01	(-2.93539668373161e-03dB,-3.45418884031898e-01°)
3.05492111321555e+01	(-2.93720717487940e-03dB,-3.47412960751618e-01°)
3.07255736526748e+01	(-2.93903863000574e-03dB,-3.49418548561166e-01°)
3.09029543251362e+01	(-2.94089129126074e-03dB,-3.51435713900357e-01°)
3.10813590273951e+01	(-2.94276540434767e-03dB,-3.53464523592013e-01°)
3.12607936712399e+01	(-2.94466121828187e-03dB,-3.55505044844359e-01°)
3.14412642025883e+01	(-2.94657898401892e-03dB,-3.57557345253611e-01°)
3.16227766016841e+01	(-2.94851895505189e-03dB,-3.59621492806215e-01°)
3.18053368832956e+01	(-2.95048138907528e-03dB,-3.61697555880192e-01°)
3.19889510969143e+01	(-2.95246654607506e-03dB,-3.63785603248540e-01°)
3.21736253269564e+01	(-2.95447468942067e-03dB,-3.65885704080617e-01°)
3.23593656929632e+01	(-2.95650608486178e-03dB,-3.67997927945191e-01°)
3.25461783498050e+01	(-2.95856100197141e-03dB,-3.70122344812011e-01°)
3.27340694878842e+01	(-2.96063971281475e-03dB,-3.72259025054855e-01°)
3.29230453333410e+01	(-2.96274249287522e-03dB,-3.74408039453166e-01°)
3.31131121482595e+01	(-2.96486962070429e-03dB,-3.76569459194882e-01°)
3.33042762308750e+01	(-2.96702137902802e-03dB,-3.78743355878196e-01°)
3.34965439157832e+01	(-2.96919805217135e-03dB,-3.80929801514953e-01°)
3.36899215741495e+01	(-2.97139992885183e-03dB,-3.83128868531933e-01°)
3.38844156139207e+01	(-2.97362730102490e-03dB,-3.85340629773953e-01°)
3.40800324800369e+01	(-2.97588046342282e-03dB,-3.87565158505930e-01°)
3.42767786546454e+01	(-2.97815971536919e-03dB,-3.89802528415255e-01°)
3.44746606573154e+01	(-2.98046535849946e-03dB,-3.92052813614641e-01°)
3.46736850452536e+01	(-2.98279769861119e-03dB,-3.94316088644137e-01°)
3.48738584135223e+01	(-2.98515704472931e-03dB,-3.96592428473847e-01°)
3.50751873952572e+01	(-2.98754370941768e-03dB,-3.98881908506266e-01°)
3.52776786618878e+01	(-2.98995800883800e-03dB,-4.01184604578913e-01°)
3.54813389233580e+01	(-2.99240026285396e-03dB,-4.03500592966673e-01°)
3.56861749283486e+01	(-2.99487079582520e-03dB,-4.05829950384143e-01°)
3.58921934645010e+01	(-2.99736993460663e-03dB,-4.08172753988843e-01°)
3.60994013586421e+01	(-2.99989801108064e-03dB,-4.10529081382899e-01°)
3.63078054770106e+01	(-3.00245535962782e-03dB,-4.12899010616458e-01°)
3.65174127254842e+01	(-3.00504231877651e-03dB,-4.15282620189750e-01°)
3.67282300498089e+01	(-3.00765923214821e-03dB,-4.17679989055402e-01°)
3.69402644358288e+01	(-3.01030644668262e-03dB,-4.20091196621672e-01°)
3.71535229097177e+01	(-3.01298431294150e-03dB,-4.22516322754841e-01°)
3.73680125382121e+01	(-3.01569318521194e-03dB,-4.24955447782014e-01°)
3.75837404288449e+01	(-3.01843342290126e-03dB,-4.27408652493208e-01°)
3.78007137301816e+01	(-3.02120538976146e-03dB,-4.29876018144331e-01°)
3.80189396320566e+01	(-3.02400945273451e-03dB,-4.32357626460271e-01°)
3.82384253658118e+01	(-3.02684598308876e-03dB,-4.34853559637136e-01°)
3.84591782045359e+01	(-3.02971535735566e-03dB,-4.37363900344921e-01°)
3.86812054633057e+01	(-3.03261795522390e-03dB,-4.39888731730631e-01°)
3.89045144994286e+01	(-3.03555416118419e-03dB,-4.42428137420678e-01°)
3.91291127126858e+01	(-3.03852436547660e-03dB,-4.44982201523428e-01°)
3.93550075455783e+01	(-3.04152896104798e-03dB,-4.47551008632785e-01°)
3.95822064835728e+01	(-3.04456834548139e-03dB,-4.50134643830419e-01°)
3.98107170553503e+01	(-3.04764292279998e-03dB,-4.52733192688239e-01°)
4.00405468330552e+01	(-3.05075309916368e-03dB,-4.55346741272162e-01°)
4.02717034325465e+01	(-3.05389928778610e-03dB,-4.57975376143918e-01°)
4.05041945136499e+01	(-3.05708190524569e-03dB,-4.60619184364734e-01°)
4.07380277804118e+01	(-3.06030137297812e-03dB,-4.63278253497864e-01°)
4.09732109813547e+01	(-3.06355811846570e-03dB,-4.65952671611141e-01°)
4.12097519097336e+01	(-3.06685257227494e-03dB,-4.68642527280747e-01°)
4.14476584037945e+01	(-3.07018517184386e-03dB,-4.71347909593107e-01°)
4.16869383470341e+01	(-3.07355635853401e-03dB,-4.74068908148716e-01°)
4.19275996684611e+01	(-3.07696657866169e-03dB,-4.76805613064584e-01°)
4.21696503428588e+01	(-3.08041628456589e-03dB,-4.79558114977301e-01°)
4.24130983910494e+01	(-3.08390593364946e-03dB,-4.82326505045964e-01°)
4.26579518801599e+01	(-3.08743598811190e-03dB,-4.85110874955419e-01°)
4.29042189238891e+01	(-3.09100691568349e-03dB,-4.87911316919158e-01°)
4.31519076827771e+01	(-3.09461918926556e-03dB,-4.90727923682445e-01°)
4.34010263644750e+01	(-3.09827328835239e-03dB,-4.93560788524879e-01°)
4.36515832240172e+01	(-3.10196969640351e-03dB,-4.96410005264308e-01°)
4.39035865640951e+01	(-3.10570890417572e-03dB,-4.99275668259022e-01°)
4.41570447353319e+01	(-3.10949140653193e-03dB,-5.02157872411776e-01°)
4.44119661365595e+01	(-3.11331770454428e-03dB,-5.05056713172304e-01°)
4.46683592150970e+01	(-3.11718830571789e-03dB,-5.07972286540439e-01°)
4.49262324670300e+01	(-3.12110372263078e-03dB,-5.10904689069733e-01°)
4.51855944374929e+01	(-3.12506447443391e-03dB,-5.13854017870130e-01°)
4.54464537209515e+01	(-3.12907108592423e-03dB,-5.16820370611441e-01°)
4.57088189614882e+01	(-3.13312408796915e-03dB,-5.19803845526700e-01°)
4.59726988530879e+01	(-3.13722401727987e-03dB,-5.22804541415143e-01°)
4.62381021399267e+01	(-3.14137141825013e-03dB,-5.25822557645239e-01°)
4.65050376166613e+01	(-3.14556683971492e-03dB,-5.28857994158674e-01°)
4.67735141287205e+01	(-3.14981083744516e-03dB,-5.31910951473177e-01°)
4.70435405725983e+01	(-3.15410397428285e-03dB,-5.34981530685610e-01°)
4.73151258961488e+01	(-3.15844681902399e-03dB,-5.38069833475844e-01°)
4.75882790988824e+01	(-3.16283994679097e-03dB,-5.41175962109791e-01°)
4.78630092322646e+01	(-3.16728393994721e-03dB,-5.44300019442731e-01°)
4.81393254000152e+01	(-3.17177938800548e-03dB,-5.47442108922723e-01°)
4.84172367584107e+01	(-3.17632688602954e-03dB,-5.50602334594303e-01°)
4.86967525165871e+01	(-3.18092703623457e-03dB,-5.53780801101667e-01°)
4.89778819368454e+01	(-3.18558044909080e-03dB,-5.56977613691802e-01°)
4.92606343349585e+01	(-3.19028774078845e-03dB,-5.60192878218600e-01°)
4.95450190804798e+01	(-3.19504953463168e-03dB,-5.63426701146063e-01°)
4.98310455970537e+01	(-3.19986646316967e-03dB,-5.66679189551247e-01°)
5.01187233627280e+01	(-3.20473916300378e-03dB,-5.69950451129076e-01°)
5.04080619102677e+01	(-3.20966828029307e-03dB,-5.73240594194627e-01°)
5.06990708274712e+01	(-3.21465446852785e-03dB,-5.76549727687164e-01°)
5.09917597574878e+01	(-3.21969838818633e-03dB,-5.79877961173909e-01°)
5.12861383991373e+01	(-3.22480070745147e-03dB,-5.83225404853509e-01°)
