Freq.	V(n028)/V(n012)
1.00000000000000e+01	(-2.79598735499523e-03dB,-1.13723633143231e-01°)
1.00577306300174e+01	(-2.79618359487588e-03dB,-1.14380165120099e-01°)
1.01157945425990e+01	(-2.79638210753100e-03dB,-1.15040487266876e-01°)
1.01741936618061e+01	(-2.79658291807799e-03dB,-1.15704621465293e-01°)
1.02329299228075e+01	(-2.79678605481369e-03dB,-1.16372589720480e-01°)
1.02920052719443e+01	(-2.79699154333881e-03dB,-1.17044414167085e-01°)
1.03514216667934e+01	(-2.79719941108395e-03dB,-1.17720117066683e-01°)
1.04111810762334e+01	(-2.79740968592636e-03dB,-1.18399720808894e-01°)
1.04712854805090e+01	(-2.79762239574619e-03dB,-1.19083247912881e-01°)
1.05317368712972e+01	(-2.79783756854031e-03dB,-1.19770721028287e-01°)
1.05925372517729e+01	(-2.79805523268084e-03dB,-1.20462162934827e-01°)
1.06536886366756e+01	(-2.79827541754409e-03dB,-1.21157596543882e-01°)
1.07151930523761e+01	(-2.79849815188034e-03dB,-1.21857044899368e-01°)
1.07770525369432e+01	(-2.79872346575369e-03dB,-1.22560531177578e-01°)
1.08392691402120e+01	(-2.79895138855495e-03dB,-1.23268078689770e-01°)
1.09018449238513e+01	(-2.79918194973762e-03dB,-1.23979710881446e-01°)
1.09647819614319e+01	(-2.79941518116198e-03dB,-1.24695451331903e-01°)
1.10280823384955e+01	(-2.79965111372658e-03dB,-1.25415323757732e-01°)
1.10917481526240e+01	(-2.79988977789974e-03dB,-1.26139352013311e-01°)
1.11557815135085e+01	(-2.80013120584563e-03dB,-1.26867560089193e-01°)
1.12201845430196e+01	(-2.80037542905028e-03dB,-1.27599972115412e-01°)
1.12849593752776e+01	(-2.80062248057497e-03dB,-1.28336612360588e-01°)
1.13501081567232e+01	(-2.80087239241990e-03dB,-1.29077505234169e-01°)
1.14156330461885e+01	(-2.80112519802933e-03dB,-1.29822675286004e-01°)
1.14815362149688e+01	(-2.80138093135300e-03dB,-1.30572147207380e-01°)
1.15478198468946e+01	(-2.80163962581493e-03dB,-1.31325945832709e-01°)
1.16144861384034e+01	(-2.80190131620026e-03dB,-1.32084096139080e-01°)
1.16815372986133e+01	(-2.80216603585488e-03dB,-1.32846623249854e-01°)
1.17489755493953e+01	(-2.80243382138904e-03dB,-1.33613552430051e-01°)
1.18168031254479e+01	(-2.80270470733419e-03dB,-1.34384909093180e-01°)
1.18850222743702e+01	(-2.80297873091121e-03dB,-1.35160718797531e-01°)
1.19536352567372e+01	(-2.80325592626281e-03dB,-1.35941007251729e-01°)
1.20226443461742e+01	(-2.80353633222663e-03dB,-1.36725800309248e-01°)
1.20920518294321e+01	(-2.80381998477820e-03dB,-1.37515123975538e-01°)
1.21618600064637e+01	(-2.80410692210212e-03dB,-1.38309004404787e-01°)
1.22320711904993e+01	(-2.80439718193056e-03dB,-1.39107467902801e-01°)
1.23026877081238e+01	(-2.80469080217223e-03dB,-1.39910540927351e-01°)
1.23737118993535e+01	(-2.80498782270661e-03dB,-1.40718250087942e-01°)
1.24451461177139e+01	(-2.80528828321543e-03dB,-1.41530622147986e-01°)
1.25169927303173e+01	(-2.80559222207819e-03dB,-1.42347684026916e-01°)
1.25892541179417e+01	(-2.80589968066475e-03dB,-1.43169462797425e-01°)
1.26619326751095e+01	(-2.80621069959259e-03dB,-1.43995985689664e-01°)
1.27350308101666e+01	(-2.80652531978207e-03dB,-1.44827280090824e-01°)
1.28085509453628e+01	(-2.80684358291951e-03dB,-1.45663373546305e-01°)
1.28824955169314e+01	(-2.80716553151598e-03dB,-1.46504293759765e-01°)
1.29568669751702e+01	(-2.80749120794657e-03dB,-1.47350068595655e-01°)
1.30316677845230e+01	(-2.80782065560214e-03dB,-1.48200726078746e-01°)
1.31069004236608e+01	(-2.80815391796423e-03dB,-1.49056294395921e-01°)
1.31825673855641e+01	(-2.80849103976263e-03dB,-1.49916801896112e-01°)
1.32586711776056e+01	(-2.80883206477314e-03dB,-1.50782277093118e-01°)
1.33352143216333e+01	(-2.80917703834778e-03dB,-1.51652748664484e-01°)
1.34121993540537e+01	(-2.80952600702217e-03dB,-1.52528245452766e-01°)
1.34896288259166e+01	(-2.80987901631622e-03dB,-1.53408796468201e-01°)
1.35675053029987e+01	(-2.81023611354308e-03dB,-1.54294430887407e-01°)
1.36458313658893e+01	(-2.81059734508989e-03dB,-1.55185178056808e-01°)
1.37246096100757e+01	(-2.81096276015474e-03dB,-1.56081067490351e-01°)
1.38038426460289e+01	(-2.81133240586467e-03dB,-1.56982128874293e-01°)
1.38835330992905e+01	(-2.81170633220013e-03dB,-1.57888392064520e-01°)
1.39636836105594e+01	(-2.81208458859849e-03dB,-1.58799887089996e-01°)
1.40442968357795e+01	(-2.81246722470646e-03dB,-1.59716644153788e-01°)
1.41253754462276e+01	(-2.81285429155119e-03dB,-1.60638693632070e-01°)
1.42069221286019e+01	(-2.81324584032477e-03dB,-1.61566066076992e-01°)
1.42889395851111e+01	(-2.81364192284729e-03dB,-1.62498792217102e-01°)
1.43714305335640e+01	(-2.81404259197393e-03dB,-1.63436902957683e-01°)
1.44543977074593e+01	(-2.81444790041228e-03dB,-1.64380429383391e-01°)
1.45378438560767e+01	(-2.81485790215004e-03dB,-1.65329402757419e-01°)
1.46217717445672e+01	(-2.81527265182413e-03dB,-1.66283854523651e-01°)
1.47061841540457e+01	(-2.81569220348400e-03dB,-1.67243816308361e-01°)
1.47910838816821e+01	(-2.81611661354059e-03dB,-1.68209319918911e-01°)
1.48764737407951e+01	(-2.81654593763120e-03dB,-1.69180397347419e-01°)
1.49623565609444e+01	(-2.81698023358287e-03dB,-1.70157080769726e-01°)
1.50487351880252e+01	(-2.81741955796961e-03dB,-1.71139402548443e-01°)
1.51356124843621e+01	(-2.81786396964490e-03dB,-1.72127395232005e-01°)
1.52229913288043e+01	(-2.81831352711978e-03dB,-1.73121091557559e-01°)
1.53108746168204e+01	(-2.81876829022881e-03dB,-1.74120524450518e-01°)
1.53992652605950e+01	(-2.81922831960142e-03dB,-1.75125727026372e-01°)
1.54881661891249e+01	(-2.81969367530951e-03dB,-1.76136732592724e-01°)
1.55775803483161e+01	(-2.82016441971120e-03dB,-1.77153574648245e-01°)
1.56675107010816e+01	(-2.82064061542316e-03dB,-1.78176286885377e-01°)
1.57579602274393e+01	(-2.82112232472252e-03dB,-1.79204903191411e-01°)
1.58489319246112e+01	(-2.82160961178294e-03dB,-1.80239457649014e-01°)
1.59404288071222e+01	(-2.82210254158933e-03dB,-1.81279984537002e-01°)
1.60324539069005e+01	(-2.82260117896172e-03dB,-1.82326518333156e-01°)
1.61250102733775e+01	(-2.82310559025776e-03dB,-1.83379093713098e-01°)
1.62181009735894e+01	(-2.82361584260012e-03dB,-1.84437745553297e-01°)
1.63117290922785e+01	(-2.82413200296774e-03dB,-1.85502508931759e-01°)
1.64058977319955e+01	(-2.82465414017339e-03dB,-1.86573419128260e-01°)
1.65006100132024e+01	(-2.82518232350833e-03dB,-1.87650511626520e-01°)
1.65958690743757e+01	(-2.82571662300467e-03dB,-1.88733822115018e-01°)
1.66916780721107e+01	(-2.82625710925793e-03dB,-1.89823386488501e-01°)
1.67880401812257e+01	(-2.82680385341927e-03dB,-1.90919240849016e-01°)
1.68849585948676e+01	(-2.82735692927242e-03dB,-1.92021421505764e-01°)
1.69824365246175e+01	(-2.82791640898630e-03dB,-1.93129964979233e-01°)
1.70804772005972e+01	(-2.82848236724084e-03dB,-1.94244907999494e-01°)
1.71790838715760e+01	(-2.82905487900635e-03dB,-1.95366287509031e-01°)
1.72782598050787e+01	(-2.82963401947217e-03dB,-1.96494140664009e-01°)
1.73780082874938e+01	(-2.83021986660003e-03dB,-1.97628504833790e-01°)
1.74783326241823e+01	(-2.83081249736489e-03dB,-1.98769417604756e-01°)
1.75792361395870e+01	(-2.83141199052438e-03dB,-1.99916916779497e-01°)
1.76807221773433e+01	(-2.83201842503009e-03dB,-2.01071040379258e-01°)
1.77827941003893e+01	(-2.83263188170985e-03dB,-2.02231826644299e-01°)
1.78854552910778e+01	(-2.83325244169542e-03dB,-2.03399314035854e-01°)
1.79887091512880e+01	(-2.83388018740348e-03dB,-2.04573541236937e-01°)
1.80925591025383e+01	(-2.83451520206588e-03dB,-2.05754547153815e-01°)
1.81970085860999e+01	(-2.83515757006726e-03dB,-2.06942370917601e-01°)
1.83020610631107e+01	(-2.83580737588492e-03dB,-2.08137051885237e-01°)
1.84077200146897e+01	(-2.83646470604414e-03dB,-2.09338629640617e-01°)
1.85139889420528e+01	(-2.83712964760656e-03dB,-2.10547143996163e-01°)
1.86208713666288e+01	(-2.83780228847313e-03dB,-2.11762634994279e-01°)
1.87283708301756e+01	(-2.83848271821078e-03dB,-2.12985142908051e-01°)
1.88364908948981e+01	(-2.83917102689969e-03dB,-2.14214708243204e-01°)
1.89452351435660e+01	(-2.83986730598310e-03dB,-2.15451371739333e-01°)
1.90546071796326e+01	(-2.84057164714839e-03dB,-2.16695174371419e-01°)
1.91646106273540e+01	(-2.84128414442319e-03dB,-2.17946157350255e-01°)
1.92752491319095e+01	(-2.84200489143680e-03dB,-2.19204362125536e-01°)
1.93865263595222e+01	(-2.84273398445784e-03dB,-2.20469830384736e-01°)
1.94984459975806e+01	(-2.84347151986976e-03dB,-2.21742604057171e-01°)
1.96110117547606e+01	(-2.84421759513746e-03dB,-2.23022725313729e-01°)
1.97242273611487e+01	(-2.84497231013748e-03dB,-2.24310236568231e-01°)
1.98380965683652e+01	(-2.84573576333710e-03dB,-2.25605180480431e-01°)
1.99526231496889e+01	(-2.84650805719147e-03dB,-2.26907599955032e-01°)
2.00678109001820e+01	(-2.84728929360213e-03dB,-2.28217538145137e-01°)
2.01836636368157e+01	(-2.84807957639513e-03dB,-2.29535038452513e-01°)
2.03001851985970e+01	(-2.84887900938017e-03dB,-2.30860144530146e-01°)
2.04173794466954e+01	(-2.84968770009444e-03dB,-2.32192900281419e-01°)
2.05352502645716e+01	(-2.85050575432820e-03dB,-2.33533349864971e-01°)
2.06538015581054e+01	(-2.85133328120850e-03dB,-2.34881537692995e-01°)
2.07730372557258e+01	(-2.85217038990489e-03dB,-2.36237508434643e-01°)
2.08929613085405e+01	(-2.85301719185295e-03dB,-2.37601307016445e-01°)
2.10135776904676e+01	(-2.85387379937582e-03dB,-2.38972978624374e-01°)
2.11348903983666e+01	(-2.85474032560219e-03dB,-2.40352568705338e-01°)
2.12569034521712e+01	(-2.85561688552740e-03dB,-2.41740122968471e-01°)
2.13796208950225e+01	(-2.85650359569996e-03dB,-2.43135687386363e-01°)
2.15030467934027e+01	(-2.85740057249098e-03dB,-2.44539308197798e-01°)
2.16271852372704e+01	(-2.85830793638681e-03dB,-2.45951031907101e-01°)
2.17520403401954e+01	(-2.85922580677613e-03dB,-2.47370905288093e-01°)
2.18776162394957e+01	(-2.86015430500402e-03dB,-2.48798975384280e-01°)
2.20039170963742e+01	(-2.86109355471726e-03dB,-2.50235289510264e-01°)
2.21309470960565e+01	(-2.86204368067404e-03dB,-2.51679895253842e-01°)
2.22587104479302e+01	(-2.86300480788727e-03dB,-2.53132840477963e-01°)
2.23872113856836e+01	(-2.86397706407679e-03dB,-2.54594173321349e-01°)
2.25164541674464e+01	(-2.86496057810753e-03dB,-2.56063942200581e-01°)
2.26464430759308e+01	(-2.86595548137097e-03dB,-2.57542195811022e-01°)
2.27771824185734e+01	(-2.86696190425254e-03dB,-2.59028983130567e-01°)
2.29086765276779e+01	(-2.86797998021117e-03dB,-2.60524353418760e-01°)
2.30409297605586e+01	(-2.86900984572038e-03dB,-2.62028356218858e-01°)
2.31739464996850e+01	(-2.87005163585798e-03dB,-2.63541041361439e-01°)
2.33077311528266e+01	(-2.87110548863152e-03dB,-2.65062458963927e-01°)
2.34422881531994e+01	(-2.87217154440724e-03dB,-2.66592659432571e-01°)
2.35776219596127e+01	(-2.87324994435792e-03dB,-2.68131693465098e-01°)
2.37137370566168e+01	(-2.87434083139285e-03dB,-2.69679612051499e-01°)
2.38506379546513e+01	(-2.87544434999091e-03dB,-2.71236466476315e-01°)
2.39883291901951e+01	(-2.87656064627969e-03dB,-2.72802308319791e-01°)
2.41268153259165e+01	(-2.87768986841655e-03dB,-2.74377189459840e-01°)
2.42661009508244e+01	(-2.87883216662812e-03dB,-2.75961162073579e-01°)
2.44061906804200e+01	(-2.87998769068105e-03dB,-2.77554278640166e-01°)
2.45470891568505e+01	(-2.88115659560524e-03dB,-2.79156591940021e-01°)
2.46888010490623e+01	(-2.88233903534455e-03dB,-2.80768155059479e-01°)
2.48313310529559e+01	(-2.88353516659994e-03dB,-2.82389021390644e-01°)
2.49746838915417e+01	(-2.88474514813977e-03dB,-2.84019244633863e-01°)
2.51188643150960e+01	(-2.88596914018723e-03dB,-2.85658878799215e-01°)
2.52638771013192e+01	(-2.88720730503774e-03dB,-2.87307978208627e-01°)
2.54097270554933e+01	(-2.88845980668273e-03dB,-2.88966597497416e-01°)
2.55564190106416e+01	(-2.88972681146176e-03dB,-2.90634791616071e-01°)
2.57039578276889e+01	(-2.89100848694062e-03dB,-2.92312615832332e-01°)
2.58523483956221e+01	(-2.89230500325701e-03dB,-2.94000125732695e-01°)
2.60015956316530e+01	(-2.89361653232283e-03dB,-2.95697377224572e-01°)
2.61517044813802e+01	(-2.89494324732925e-03dB,-2.97404426538037e-01°)
2.63026799189541e+01	(-2.89628532482173e-03dB,-2.99121330227297e-01°)
2.64545269472407e+01	(-2.89764294217456e-03dB,-3.00848145173271e-01°)
2.66072505979884e+01	(-2.89901627968991e-03dB,-3.02584928584778e-01°)
2.67608559319936e+01	(-2.90040551936602e-03dB,-3.04331738000901e-01°)
2.69153480392694e+01	(-2.90181084502742e-03dB,-3.06088631292858e-01°)
2.70707320392138e+01	(-2.90323244336289e-03dB,-3.07855666665435e-01°)
2.72270130807794e+01	(-2.90467050233184e-03dB,-3.09632902659746e-01°)
2.73841963426439e+01	(-2.90612521309850e-03dB,-3.11420398154136e-01°)
2.75422870333819e+01	(-2.90759676773891e-03dB,-3.13218212367275e-01°)
2.77012903916376e+01	(-2.90908536179724e-03dB,-3.15026404859136e-01°)
2.78612116862980e+01	(-2.91059119242116e-03dB,-3.16845035533372e-01°)
2.80220562166677e+01	(-2.91211445913547e-03dB,-3.18674164639418e-01°)
2.81838293126448e+01	(-2.91365536411608e-03dB,-3.20513852774155e-01°)
2.83465363348970e+01	(-2.91521411137874e-03dB,-3.22364160884339e-01°)
2.85101826750394e+01	(-2.91679090753628e-03dB,-3.24225150268203e-01°)
2.86747737558135e+01	(-2.91838596106070e-03dB,-3.26096882577926e-01°)
2.88403150312664e+01	(-2.91999948416131e-03dB,-3.27979419820913e-01°)
2.90068119869318e+01	(-2.92163169058826e-03dB,-3.29872824362601e-01°)
2.91742701400120e+01	(-2.92328279650264e-03dB,-3.31777158928402e-01°)
2.93426950395600e+01	(-2.92495302021023e-03dB,-3.33692486605584e-01°)
2.95120922666642e+01	(-2.92664258376673e-03dB,-3.35618870845203e-01°)
2.96824674346327e+01	(-2.92835171076386e-03dB,-3.37556375464556e-01°)
2.98538261891799e+01	(-2.93008062808215e-03dB,-3.39505064648967e-01°)
3.00261742086130e+01	(-2.93182956448159e-03dB,-3.41465002954314e-01°)
3.01995172040205e+01	(-2.93359875186919e-03dB,-3.43436255308857e-01°)
3.03738609194614e+01	(-2.93538842479255e-03dB,-3.45418887015343e-01°)
3.05492111321555e+01	(-2.93719882033469e-03dB,-3.47412963753386e-01°)
3.07255736526748e+01	(-2.93903017841220e-03dB,-3.49418551581475e-01°)
3.09029543251362e+01	(-2.94088274173951e-03dB,-3.51435716939218e-01°)
3.10813590273951e+01	(-2.94275675651958e-03dB,-3.53464526649313e-01°)
3.12607936712399e+01	(-2.94465246994936e-03dB,-3.55505047920587e-01°)
3.14412642025883e+01	(-2.94657013412950e-03dB,-3.57557348348861e-01°)
3.16227766016841e+01	(-2.94851000297653e-03dB,-3.59621495920409e-01°)
3.18053368832956e+01	(-2.95047233336114e-03dB,-3.61697559013605e-01°)
3.19889510969143e+01	(-2.95245738571401e-03dB,-3.63785606401178e-01°)
3.21736253269564e+01	(-2.95446542269748e-03dB,-3.65885707252799e-01°)
3.23593656929632e+01	(-2.95649671103841e-03dB,-3.67997931136883e-01°)
3.25461783498050e+01	(-2.95855151910015e-03dB,-3.70122348023627e-01°)
3.27340694878842e+01	(-2.96063012035917e-03dB,-3.72259028286242e-01°)
3.29230453333410e+01	(-2.96273278941333e-03dB,-3.74408042704563e-01°)
3.31131121482595e+01	(-2.96485980515078e-03dB,-3.76569462466286e-01°)
3.33042762308750e+01	(-2.96701144955573e-03dB,-3.78743359169993e-01°)
3.34965439157832e+01	(-2.96918800742293e-03dB,-3.80929804827271e-01°)
3.36899215741495e+01	(-2.97138976816545e-03dB,-3.83128871864725e-01°)
3.38844156139207e+01	(-2.97361702266408e-03dB,-3.85340633127418e-01°)
3.40800324800369e+01	(-2.97587006631477e-03dB,-3.87565161880192e-01°)
3.42767786546454e+01	(-2.97814919787485e-03dB,-3.89802531810511e-01°)
3.44746606573154e+01	(-2.98045471898172e-03dB,-3.92052817031113e-01°)
3.46736850452536e+01	(-2.98278693587186e-03dB,-3.94316092081922e-01°)
3.48738584135223e+01	(-2.98514615695182e-03dB,-3.96592431933208e-01°)
3.50751873952572e+01	(-2.98753269561123e-03dB,-3.98881911987188e-01°)
3.52776786618878e+01	(-2.98994686784392e-03dB,-4.01184608081470e-01°)
3.54813389233580e+01	(-2.99238899284604e-03dB,-4.03500596491140e-01°)
3.56861749283486e+01	(-2.99485939542581e-03dB,-4.05829953930700e-01°)
3.58921934645010e+01	(-2.99735840241785e-03dB,-4.08172757557527e-01°)
3.60994013586421e+01	(-2.99988634501677e-03dB,-4.10529084974062e-01°)
3.63078054770106e+01	(-3.00244355844433e-03dB,-4.12899014230160e-01°)
3.65174127254842e+01	(-3.00503038103207e-03dB,-4.15282623826139e-01°)
3.67282300498089e+01	(-3.00764715649218e-03dB,-4.17679992714556e-01°)
3.69402644358288e+01	(-3.01029423079968e-03dB,-4.20091200303962e-01°)
3.71535229097177e+01	(-3.01297195529963e-03dB,-4.22516326460427e-01°)
3.73680125382121e+01	(-3.01568068441129e-03dB,-4.24955451510978e-01°)
3.75837404288449e+01	(-3.01842077815550e-03dB,-4.27408656245437e-01°)
3.78007137301816e+01	(-3.02119259854303e-03dB,-4.29876021920279e-01°)
3.80189396320566e+01	(-3.02399651305992e-03dB,-4.32357630260179e-01°)
3.82384253658118e+01	(-3.02683289353499e-03dB,-4.34853563461105e-01°)
3.84591782045359e+01	(-3.02970211619388e-03dB,-4.37363904193131e-01°)
3.86812054633057e+01	(-3.03260456040598e-03dB,-4.39888735603376e-01°)
3.89045144994286e+01	(-3.03554061197201e-03dB,-4.42428141317776e-01°)
3.91291127126858e+01	(-3.03851065909851e-03dB,-4.44982205445392e-01°)
3.93550075455783e+01	(-3.04151509568351e-03dB,-4.47551012579756e-01°)
3.95822064835728e+01	(-3.04455431987919e-03dB,-4.50134647802455e-01°)
3.98107170553503e+01	(-3.04762873476430e-03dB,-4.52733196685555e-01°)
4.00405468330552e+01	(-3.05073874686438e-03dB,-4.55346745294970e-01°)
4.02717034325465e+01	(-3.05388476929173e-03dB,-4.57975380192432e-01°)
4.05041945136499e+01	(-3.05706721821387e-03dB,-4.60619188439250e-01°)
4.07380277804118e+01	(-3.06028651623369e-03dB,-4.63278257598326e-01°)
4.09732109813547e+01	(-3.06354308933924e-03dB,-4.65952675737971e-01°)
4.12097519097336e+01	(-3.06683736952665e-03dB,-4.68642531433930e-01°)
4.14476584037945e+01	(-3.07016979262971e-03dB,-4.71347913773099e-01°)
4.16869383470341e+01	(-3.07354080122639e-03dB,-4.74068912355551e-01°)
4.19275996684611e+01	(-3.07695084169859e-03dB,-4.76805617298389e-01°)
4.21696503428588e+01	(-3.08040036570329e-03dB,-4.79558119238276e-01°)
4.24130983910494e+01	(-3.08388983044362e-03dB,-4.82326509334404e-01°)
4.26579518801599e+01	(-3.08741969798306e-03dB,-4.85110879271667e-01°)
4.29042189238891e+01	(-3.09099043672235e-03dB,-4.87911321263429e-01°)
4.31519076827771e+01	(-3.09460251990236e-03dB,-4.90727928054683e-01°)
4.34010263644750e+01	(-3.09825642628904e-03dB,-4.93560792925341e-01°)
4.36515832240172e+01	(-3.10195263910558e-03dB,-4.96410009693294e-01°)
4.39035865640951e+01	(-3.10569164858301e-03dB,-4.99275672717006e-01°)
4.41570447353319e+01	(-3.10947395155122e-03dB,-5.02157876898593e-01°)
4.44119661365595e+01	(-3.11330004702757e-03dB,-5.05056717688470e-01°)
4.46683592150970e+01	(-3.11717044412722e-03dB,-5.07972291085922e-01°)
4.49262324670300e+01	(-3.12108565420015e-03dB,-5.10904693644886e-01°)
4.51855944374929e+01	(-3.12504619670988e-03dB,-5.13854022475182e-01°)
4.54464537209515e+01	(-3.12905259659515e-03dB,-5.16820375246626e-01°)
4.57088189614882e+01	(-3.13310538458830e-03dB,-5.19803850192256e-01°)
4.59726988530879e+01	(-3.13720509782886e-03dB,-5.22804546111168e-01°)
4.62381021399267e+01	(-3.14135227926739e-03dB,-5.25822562372181e-01°)
4.65050376166613e+01	(-3.14554747904407e-03dB,-5.28857998916776e-01°)
4.67735141287205e+01	(-3.14979125261534e-03dB,-5.31910956262553e-01°)
4.70435405725983e+01	(-3.15408416269200e-03dB,-5.34981535506583e-01°)
4.73151258961488e+01	(-3.15842677748350e-03dB,-5.38069838328748e-01°)
4.75882790988824e+01	(-3.16281967371458e-03dB,-5.41175966994681e-01°)
4.78630092322646e+01	(-3.16726343213664e-03dB,-5.44300024359968e-01°)
4.81393254000152e+01	(-3.17175864272647e-03dB,-5.47442113872542e-01°)
4.84172367584107e+01	(-3.17630590059315e-03dB,-5.50602339576990e-01°)
4.86967525165871e+01	(-3.18090580733156e-03dB,-5.53780806117577e-01°)
4.89778819368454e+01	(-3.18555897474705e-03dB,-5.56977618741024e-01°)
4.92606343349585e+01	(-3.19026601779214e-03dB,-5.60192883301493e-01°)
4.95450190804798e+01	(-3.19502756018193e-03dB,-5.63426706262858e-01°)
4.98310455970537e+01	(-3.19984423381153e-03dB,-5.66679194702350e-01°)
5.01187233627280e+01	(-3.20471667622382e-03dB,-5.69950456314675e-01°)
5.04080619102677e+01	(-3.20964553341193e-03dB,-5.73240599414915e-01°)
5.06990708274712e+01	(-3.21463145817254e-03dB,-5.76549732942540e-01°)
5.09917597574878e+01	(-3.21967511165818e-03dB,-5.79877966464554e-01°)
5.12861383991373e+01	(-3.22477716163697e-03dB,-5.83225410179697e-01°)
